! Sonnet Data File
! From: emgraph Version : 16.54
! From Project: BusResonator_17
! Data is De-embedded 
! Data File Written: 08/31/2017 18:33:07
!< HDATE 08/31/2017 16:58:22
!< MDATE 08/31/2017 17:03:00
!< PARAMS
!< BusLengthControl = 3100.0
!< END PARAMS
# GHZ S MA R 50.00000
6.00000000 0.999993 -111.2 6.983e-5 -158.5 6.983e-5 -158.5 0.999998 -25.72
!< P1 F=6.0 Eeff=(6.44857038 -2.9736e-5) Z0=(51.7893065 1.19468e-4) R=0.05083541 C=0.00240605 
!< P2 F=6.0 Eeff=(6.44857038 -2.9736e-5) Z0=(51.7893065 1.19468e-4) R=0.05083541 C=0.00240605 
6.05000000 0.999975 -112.2 7.093e-5 -159.0 7.093e-5 -159.0 0.999998 -25.94
6.10000000 0.999960 -113.1 7.204e-5 -159.6 7.204e-5 -159.6 0.999998 -26.15
6.15000000 0.999948 -114.1 7.316e-5 -160.2 7.316e-5 -160.2 0.999998 -26.37
6.20000000 0.999939 -115.0 7.428e-5 -160.8 7.428e-5 -160.8 0.999998 -26.59
6.25000000 0.999933 -116.0 7.541e-5 -161.4 7.541e-5 -161.4 0.999998 -26.81
6.30000000 0.999928 -116.9 7.655e-5 -162.0 7.655e-5 -162.0 0.999998 -27.03
6.35000000 0.999926 -117.9 7.769e-5 -162.6 7.769e-5 -162.6 0.999998 -27.26
6.40000000 0.999925 -118.9 7.883e-5 -163.2 7.883e-5 -163.2 0.999998 -27.48
6.45000000 0.999926 -119.8 7.998e-5 -163.7 7.998e-5 -163.7 0.999998 -27.70
6.50000000 0.999927 -120.8 8.112e-5 -164.3 8.112e-5 -164.3 0.999998 -27.92
6.55000000 0.999930 -121.7 8.226e-5 -164.9 8.226e-5 -164.9 0.999998 -28.14
6.60000000 0.999933 -122.7 8.340e-5 -165.5 8.340e-5 -165.5 0.999998 -28.36
6.65000000 0.999937 -123.7 8.452e-5 -166.1 8.452e-5 -166.1 0.999998 -28.58
6.70000000 0.999941 -124.6 8.564e-5 -166.7 8.564e-5 -166.7 0.999998 -28.81
6.75000000 0.999946 -125.6 8.673e-5 -167.3 8.673e-5 -167.3 0.999998 -29.03
6.80000000 0.999951 -126.5 8.782e-5 -167.9 8.782e-5 -167.9 0.999998 -29.25
6.85000000 0.999955 -127.5 8.887e-5 -168.5 8.887e-5 -168.5 0.999998 -29.47
6.90000000 0.999960 -128.5 8.990e-5 -169.1 8.990e-5 -169.1 0.999998 -29.70
6.95000000 0.999965 -129.4 9.089e-5 -169.7 9.089e-5 -169.7 0.999998 -29.92
7.00000000 0.999970 -130.4 9.185e-5 -170.3 9.185e-5 -170.3 0.999998 -30.15
7.05000000 0.999974 -131.4 9.275e-5 -170.9 9.275e-5 -170.9 0.999998 -30.37
7.10000000 0.999978 -132.3 9.360e-5 -171.5 9.360e-5 -171.5 0.999998 -30.60
7.15000000 0.999982 -133.3 9.439e-5 -172.1 9.439e-5 -172.1 0.999998 -30.82
7.20000000 0.999986 -134.3 9.509e-5 -172.7 9.509e-5 -172.7 0.999998 -31.05
7.25000000 0.999990 -135.2 9.571e-5 -173.3 9.571e-5 -173.3 0.999998 -31.27
7.30000000 0.999993 -136.2 9.623e-5 -173.8 9.623e-5 -173.8 0.999997 -31.50
!< P1 F=7.3 Eeff=(6.44785421 -2.9729e-5) Z0=(51.7859155 1.19478e-4) R=0.04179126 C=0.00240602 
!< P2 F=7.3 Eeff=(6.44785421 -2.9729e-5) Z0=(51.7859155 1.19478e-4) R=0.04179126 C=0.00240602 
7.35000000 0.999995 -137.2 9.663e-5 -174.4 9.663e-5 -174.4 0.999997 -31.73
7.40000000 0.999998 -138.1 9.689e-5 -175.0 9.689e-5 -175.0 0.999997 -31.96
7.45000000 1.000000 -139.1 9.699e-5 -175.6 9.699e-5 -175.6 0.999997 -32.18
7.50000000 1.000002 -140.1 9.692e-5 -176.2 9.692e-5 -176.2 0.999997 -32.41
7.55000000 1.000003 -141.0 9.663e-5 -176.8 9.663e-5 -176.8 0.999997 -32.64
7.60000000 1.000004 -142.0 9.611e-5 -177.4 9.611e-5 -177.4 0.999997 -32.87
7.65000000 1.000005 -143.0 9.530e-5 -178.0 9.530e-5 -178.0 0.999997 -33.10
7.70000000 1.000006 -143.9 9.418e-5 -178.6 9.418e-5 -178.6 0.999997 -33.33
7.75000000 1.000006 -144.9 9.268e-5 -179.2 9.268e-5 -179.2 0.999997 -33.56
7.80000000 1.000007 -145.9 9.076e-5 -179.8 9.076e-5 -179.8 0.999997 -33.80
7.85000000 1.000007 -146.9 8.833e-5 179.55 8.833e-5 179.55 0.999997 -34.03
7.90000000 1.000007 -147.8 8.533e-5 178.95 8.533e-5 178.95 0.999997 -34.26
7.95000000 1.000006 -148.8 8.164e-5 178.35 8.164e-5 178.35 0.999997 -34.50
8.00000000 1.000006 -149.8 7.716e-5 177.74 7.716e-5 177.74 0.999997 -34.73
8.05000000 1.000005 -150.7 7.174e-5 177.14 7.174e-5 177.14 0.999997 -34.97
8.10000000 1.000005 -151.7 6.521e-5 176.54 6.521e-5 176.54 0.999996 -35.21
8.15000000 1.000004 -152.7 5.737e-5 175.93 5.737e-5 175.93 0.999996 -35.44
8.20000000 1.000003 -153.7 4.796e-5 175.33 4.796e-5 175.33 0.999996 -35.68
8.25000000 1.000002 -154.6 3.665e-5 174.73 3.665e-5 174.73 0.999996 -35.93
8.30000000 1.000001 -155.6 2.306e-5 174.13 2.306e-5 174.13 0.999996 -36.17
8.35000000 1.000001 -156.6 6.666e-6 173.58 6.666e-6 173.58 0.999996 -36.41
8.40000000 1.000000 -157.5 1.317e-5 -7.158 1.317e-5 -7.158 0.999996 -36.66
8.45000000 0.999999 -158.5 3.731e-5 -7.740 3.731e-5 -7.740 0.999996 -36.90
8.50000000 0.999998 -159.5 6.689e-5 -8.345 6.689e-5 -8.345 0.999996 -37.15
8.55000000 0.999997 -160.5 1.034e-4 -8.954 1.034e-4 -8.954 0.999996 -37.40
8.60000000 0.999997 -161.4 1.491e-4 -9.567 1.491e-4 -9.567 0.999996 -37.66
8.65000000 0.999996 -162.4 2.068e-4 -10.18 2.068e-4 -10.18 0.999996 -37.92
8.70000000 0.999995 -163.4 2.812e-4 -10.80 2.812e-4 -10.80 0.999996 -38.18
8.75000000 0.999995 -164.4 3.791e-4 -11.42 3.791e-4 -11.42 0.999996 -38.44
8.80000000 0.999994 -165.3 5.117e-4 -12.05 5.117e-4 -12.05 0.999996 -38.72
8.85000000 0.999994 -166.3 6.981e-4 -12.68 6.981e-4 -12.68 0.999996 -39.00
8.90000000 0.999993 -167.3 9.747e-4 -13.32 9.747e-4 -13.32 0.999995 -39.29
8.95000000 0.999992 -168.3 0.001419 -13.97 0.001419 -13.97 0.999995 -39.62
9.00000000 0.999990 -169.3 0.002231 -14.66 0.002231 -14.66 0.999993 -39.99
9.05000000 0.999983 -170.3 0.004137 -15.44 0.004137 -15.44 0.999985 -40.51
9.10000000 0.999897 -171.5 0.013366 -16.82 0.013366 -16.82 0.999880 -42.03
9.10572736 0.999834 -171.7 0.017286 -17.22 0.017286 -17.22 0.999803 -42.59
9.11132349 0.999687 -172.0 0.024003 -17.85 0.024003 -17.85 0.999626 -43.52
9.11679138 0.999225 -172.4 0.038142 -19.09 0.038142 -19.09 0.999065 -45.46
9.12213399 0.996011 -173.7 0.086930 -23.22 0.086930 -23.22 0.995170 -52.12
9.12735418 0.942458 -164.3 0.326561 -167.9 0.326561 -167.9 0.929880 6.4060
9.13245475 0.998014 -170.3 0.061518 168.98 0.061518 168.98 0.997602 -32.09
9.13743845 0.999379 -171.1 0.034325 166.66 0.034325 166.66 0.999254 -35.80
9.14230795 0.999691 -171.4 0.024111 165.75 0.024111 165.75 0.999632 -37.20
9.14706588 0.999810 -171.6 0.018763 165.25 0.018763 165.25 0.999776 -37.95
9.15000000 0.999851 -171.8 0.016537 165.03 0.016537 165.03 0.999826 -38.27
9.15171478 0.999869 -171.8 0.015474 164.92 0.015474 164.92 0.999847 -38.42
9.15625716 0.999902 -172.0 0.013249 164.68 0.013249 164.68 0.999887 -38.74
9.16069546 0.999923 -172.1 0.011643 164.49 0.011643 164.49 0.999913 -38.99
9.16503206 0.999937 -172.2 0.010431 164.34 0.010431 164.34 0.999929 -39.17
9.16926929 0.999947 -172.3 0.009483 164.20 0.009483 164.20 0.999941 -39.32
9.17340943 0.999954 -172.4 0.008722 164.09 0.008722 164.09 0.999950 -39.45
9.17745470 0.999959 -172.5 0.008099 163.99 0.008099 163.99 0.999956 -39.56
9.18140728 0.999963 -172.6 0.007578 163.89 0.007578 163.89 0.999961 -39.65
9.18526929 0.999967 -172.7 0.007137 163.81 0.007137 163.81 0.999965 -39.73
9.18904281 0.999970 -172.8 0.006759 163.73 0.006759 163.73 0.999969 -39.80
9.19272986 0.999972 -172.8 0.006431 163.66 0.006431 163.66 0.999971 -39.87
9.19633243 0.999974 -172.9 0.006144 163.59 0.006144 163.59 0.999974 -39.92
9.19985245 0.999975 -173.0 0.005892 163.52 0.005892 163.52 0.999975 -39.98
9.20000000 0.999975 -173.0 0.005882 163.52 0.005882 163.52 0.999976 -39.98
9.20329182 0.999977 -173.1 0.005667 163.46 0.005667 163.46 0.999977 -40.03
9.20665237 0.999978 -173.1 0.005467 163.40 0.005467 163.40 0.999978 -40.07
9.20993592 0.999979 -173.2 0.005287 163.35 0.005287 163.35 0.999980 -40.12
9.21314424 0.999980 -173.3 0.005124 163.29 0.005124 163.29 0.999981 -40.16
9.21627903 0.999980 -173.3 0.004976 163.24 0.004976 163.24 0.999982 -40.19
9.21934200 0.999981 -173.4 0.004842 163.19 0.004842 163.19 0.999982 -40.23
9.22233479 0.999982 -173.5 0.004719 163.14 0.004719 163.14 0.999983 -40.26
9.22525899 0.999982 -173.5 0.004606 163.10 0.004606 163.10 0.999984 -40.29
9.22811620 0.999983 -173.6 0.004502 163.05 0.004502 163.05 0.999984 -40.32
9.23090793 0.999983 -173.6 0.004406 163.01 0.004406 163.01 0.999985 -40.35
9.23363570 0.999983 -173.7 0.004317 162.97 0.004317 162.97 0.999985 -40.38
9.23630096 0.999984 -173.7 0.004235 162.93 0.004235 162.93 0.999986 -40.41
9.23890515 0.999984 -173.8 0.004158 162.89 0.004158 162.89 0.999986 -40.43
9.24144967 0.999984 -173.8 0.004087 162.85 0.004087 162.85 0.999987 -40.45
9.24393588 0.999985 -173.9 0.004020 162.81 0.004020 162.81 0.999987 -40.48
9.24636512 0.999985 -173.9 0.003957 162.78 0.003957 162.78 0.999987 -40.50
9.24873871 0.999985 -174.0 0.003899 162.74 0.003899 162.74 0.999988 -40.52
9.25000000 0.999985 -174.0 0.003869 162.72 0.003869 162.72 0.999988 -40.53
9.25105790 0.999985 -174.0 0.003844 162.71 0.003844 162.71 0.999988 -40.54
9.25332395 0.999986 -174.1 0.003792 162.67 0.003792 162.67 0.999988 -40.56
9.25553808 0.999986 -174.1 0.003743 162.64 0.003743 162.64 0.999988 -40.58
9.25770148 0.999986 -174.2 0.003697 162.61 0.003697 162.61 0.999988 -40.60
9.25981530 0.999986 -174.2 0.003654 162.58 0.003654 162.58 0.999989 -40.62
9.26188069 0.999986 -174.3 0.003612 162.55 0.003612 162.55 0.999989 -40.63
9.26389875 0.999986 -174.3 0.003573 162.52 0.003573 162.52 0.999989 -40.65
9.26587057 0.999987 -174.3 0.003536 162.49 0.003536 162.49 0.999989 -40.67
9.26779721 0.999987 -174.4 0.003501 162.47 0.003501 162.47 0.999989 -40.68
9.26967970 0.999987 -174.4 0.003468 162.44 0.003468 162.44 0.999989 -40.70
9.27151906 0.999987 -174.5 0.003436 162.41 0.003436 162.41 0.999990 -40.71
9.27331627 0.999987 -174.5 0.003406 162.39 0.003406 162.39 0.999990 -40.73
9.27507229 0.999987 -174.5 0.003378 162.36 0.003378 162.36 0.999990 -40.74
9.27678809 0.999987 -174.6 0.003350 162.34 0.003350 162.34 0.999990 -40.75
9.27846456 0.999987 -174.6 0.003324 162.32 0.003324 162.32 0.999990 -40.77
9.28010263 0.999987 -174.6 0.003299 162.29 0.003299 162.29 0.999990 -40.78
9.28170315 0.999987 -174.7 0.003275 162.27 0.003275 162.27 0.999990 -40.79
9.28326701 0.999988 -174.7 0.003252 162.25 0.003252 162.25 0.999990 -40.80
9.28479503 0.999988 -174.7 0.003231 162.23 0.003231 162.23 0.999990 -40.82
9.28628803 0.999988 -174.7 0.003210 162.21 0.003210 162.21 0.999990 -40.83
9.28774683 0.999988 -174.8 0.003190 162.19 0.003190 162.19 0.999991 -40.84
9.28917220 0.999988 -174.8 0.003170 162.17 0.003170 162.17 0.999991 -40.85
9.29056491 0.999988 -174.8 0.003152 162.15 0.003152 162.15 0.999991 -40.86
9.29192571 0.999988 -174.9 0.003134 162.13 0.003134 162.13 0.999991 -40.87
9.29325533 0.999988 -174.9 0.003117 162.12 0.003117 162.12 0.999991 -40.88
9.29455448 0.999988 -174.9 0.003101 162.10 0.003101 162.10 0.999991 -40.89
9.29582386 0.999988 -174.9 0.003085 162.08 0.003085 162.08 0.999991 -40.90
9.29706415 0.999988 -175.0 0.003070 162.07 0.003070 162.07 0.999991 -40.91
9.29827603 0.999988 -175.0 0.003056 162.05 0.003056 162.05 0.999991 -40.92
9.29946013 0.999988 -175.0 0.003042 162.03 0.003042 162.03 0.999991 -40.93
9.30000000 0.999988 -175.0 0.003035 162.03 0.003035 162.03 0.999991 -40.93
9.30061711 0.999988 -175.0 0.003028 162.02 0.003028 162.02 0.999991 -40.93
9.30174757 0.999988 -175.1 0.003015 162.00 0.003015 162.00 0.999991 -40.94
9.30285213 0.999988 -175.1 0.003002 161.99 0.003002 161.99 0.999991 -40.95
9.30393138 0.999988 -175.1 0.002990 161.97 0.002990 161.97 0.999991 -40.96
9.30498590 0.999988 -175.1 0.002979 161.96 0.002979 161.96 0.999991 -40.97
9.30601626 0.999988 -175.1 0.002967 161.94 0.002967 161.94 0.999991 -40.97
9.30702301 0.999988 -175.2 0.002957 161.93 0.002957 161.93 0.999991 -40.98
9.30800669 0.999988 -175.2 0.002946 161.92 0.002946 161.92 0.999991 -40.99
9.30896783 0.999988 -175.2 0.002936 161.90 0.002936 161.90 0.999991 -40.99
9.30990695 0.999988 -175.2 0.002926 161.89 0.002926 161.89 0.999992 -41.00
9.31082455 0.999988 -175.2 0.002917 161.88 0.002917 161.88 0.999992 -41.01
9.31172112 0.999988 -175.2 0.002908 161.87 0.002908 161.87 0.999992 -41.01
9.31259715 0.999988 -175.3 0.002899 161.85 0.002899 161.85 0.999992 -41.02
9.31345310 0.999988 -175.3 0.002890 161.84 0.002890 161.84 0.999992 -41.03
9.31428944 0.999988 -175.3 0.002882 161.83 0.002882 161.83 0.999992 -41.03
9.31510662 0.999988 -175.3 0.002874 161.82 0.002874 161.82 0.999992 -41.04
9.31590508 0.999988 -175.3 0.002866 161.81 0.002866 161.81 0.999992 -41.04
9.31668523 0.999988 -175.3 0.002859 161.80 0.002859 161.80 0.999992 -41.05
9.31744752 0.999988 -175.4 0.002852 161.79 0.002852 161.79 0.999992 -41.05
9.31819233 0.999988 -175.4 0.002845 161.78 0.002845 161.78 0.999992 -41.06
9.31892008 0.999988 -175.4 0.002838 161.77 0.002838 161.77 0.999992 -41.06
9.31963115 0.999988 -175.4 0.002831 161.76 0.002831 161.76 0.999992 -41.07
9.32032593 0.999988 -175.4 0.002825 161.76 0.002825 161.76 0.999992 -41.07
9.32100479 0.999988 -175.4 0.002819 161.75 0.002819 161.75 0.999992 -41.08
9.32166810 0.999988 -175.4 0.002813 161.74 0.002813 161.74 0.999992 -41.08
9.32231620 0.999989 -175.5 0.002807 161.73 0.002807 161.73 0.999992 -41.09
9.32294946 0.999989 -175.5 0.002801 161.72 0.002801 161.72 0.999992 -41.09
9.32356820 0.999989 -175.5 0.002796 161.71 0.002796 161.71 0.999992 -41.10
9.32417277 0.999989 -175.5 0.002790 161.71 0.002790 161.71 0.999992 -41.10
9.32476348 0.999989 -175.5 0.002785 161.70 0.002785 161.70 0.999992 -41.11
9.32534066 0.999989 -175.5 0.002780 161.69 0.002780 161.69 0.999992 -41.11
9.32590462 0.999989 -175.5 0.002775 161.68 0.002775 161.68 0.999992 -41.11
9.32645565 0.999989 -175.5 0.002770 161.67 0.002770 161.67 0.999992 -41.12
9.32699405 0.999989 -175.5 0.002766 161.67 0.002766 161.67 0.999992 -41.12
9.32752012 0.999989 -175.6 0.002761 161.66 0.002761 161.66 0.999992 -41.12
9.32803413 0.999989 -175.6 0.002757 161.65 0.002757 161.65 0.999992 -41.13
9.32853637 0.999989 -175.6 0.002753 161.65 0.002753 161.65 0.999992 -41.13
9.32902710 0.999989 -175.6 0.002749 161.64 0.002749 161.64 0.999992 -41.14
9.32950658 0.999989 -175.6 0.002745 161.63 0.002745 161.63 0.999992 -41.14
9.32997508 0.999989 -175.6 0.002741 161.63 0.002741 161.63 0.999992 -41.14
9.33043284 0.999989 -175.6 0.002737 161.62 0.002737 161.62 0.999992 -41.15
9.33088011 0.999989 -175.6 0.002733 161.62 0.002733 161.62 0.999992 -41.15
9.33131713 0.999989 -175.6 0.002730 161.61 0.002730 161.61 0.999992 -41.15
9.33174414 0.999989 -175.6 0.002726 161.60 0.002726 161.60 0.999992 -41.15
9.33216137 0.999989 -175.7 0.002723 161.60 0.002723 161.60 0.999992 -41.16
9.33256903 0.999989 -175.7 0.002719 161.59 0.002719 161.59 0.999992 -41.16
9.33296736 0.999989 -175.7 0.002716 161.59 0.002716 161.59 0.999992 -41.16
9.33335656 0.999989 -175.7 0.002713 161.58 0.002713 161.58 0.999992 -41.17
9.33373683 0.999989 -175.7 0.002710 161.58 0.002710 161.58 0.999992 -41.17
9.33410840 0.999989 -175.7 0.002707 161.57 0.002707 161.57 0.999992 -41.17
9.33447145 0.999989 -175.7 0.002704 161.57 0.002704 161.57 0.999992 -41.17
9.33482618 0.999989 -175.7 0.002702 161.56 0.002702 161.56 0.999992 -41.18
9.33517279 0.999989 -175.7 0.002699 161.56 0.002699 161.56 0.999992 -41.18
9.33551145 0.999989 -175.7 0.002696 161.56 0.002696 161.56 0.999992 -41.18
9.33584235 0.999989 -175.7 0.002694 161.55 0.002694 161.55 0.999992 -41.18
9.33616567 0.999989 -175.7 0.002691 161.55 0.002691 161.55 0.999992 -41.18
9.33648158 0.999989 -175.7 0.002689 161.54 0.002689 161.54 0.999992 -41.19
9.33679026 0.999989 -175.7 0.002686 161.54 0.002686 161.54 0.999992 -41.19
9.33709186 0.999989 -175.7 0.002684 161.53 0.002684 161.53 0.999992 -41.19
9.33738654 0.999989 -175.8 0.002682 161.53 0.002682 161.53 0.999992 -41.19
9.33767448 0.999989 -175.8 0.002680 161.53 0.002680 161.53 0.999992 -41.19
9.33795582 0.999989 -175.8 0.002677 161.52 0.002677 161.52 0.999992 -41.20
9.33823071 0.999989 -175.8 0.002675 161.52 0.002675 161.52 0.999992 -41.20
9.33849931 0.999989 -175.8 0.002673 161.52 0.002673 161.52 0.999992 -41.20
9.33876174 0.999989 -175.8 0.002671 161.51 0.002671 161.51 0.999992 -41.20
9.33901817 0.999989 -175.8 0.002669 161.51 0.002669 161.51 0.999992 -41.20
9.33926872 0.999989 -175.8 0.002667 161.51 0.002667 161.51 0.999992 -41.21
9.33951353 0.999989 -175.8 0.002666 161.50 0.002666 161.50 0.999992 -41.21
9.33975273 0.999989 -175.8 0.002664 161.50 0.002664 161.50 0.999992 -41.21
9.33998645 0.999989 -175.8 0.002662 161.50 0.002662 161.50 0.999992 -41.21
9.34021481 0.999989 -175.8 0.002660 161.49 0.002660 161.49 0.999992 -41.21
9.34043794 0.999989 -175.8 0.002659 161.49 0.002659 161.49 0.999992 -41.21
9.34065596 0.999989 -175.8 0.002657 161.49 0.002657 161.49 0.999992 -41.22
9.34086898 0.999989 -175.8 0.002656 161.48 0.002656 161.48 0.999992 -41.22
9.34107712 0.999989 -175.8 0.002654 161.48 0.002654 161.48 0.999992 -41.22
9.34128049 0.999989 -175.8 0.002653 161.48 0.002653 161.48 0.999992 -41.22
9.34147920 0.999989 -175.8 0.002651 161.48 0.002651 161.48 0.999992 -41.22
9.34167336 0.999989 -175.8 0.002650 161.47 0.002650 161.47 0.999992 -41.22
9.34186307 0.999989 -175.8 0.002648 161.47 0.002648 161.47 0.999992 -41.22
9.34204843 0.999989 -175.8 0.002647 161.47 0.002647 161.47 0.999992 -41.22
9.34222955 0.999989 -175.8 0.002646 161.47 0.002646 161.47 0.999992 -41.23
9.34240651 0.999989 -175.9 0.002644 161.46 0.002644 161.46 0.999992 -41.23
9.34257942 0.999989 -175.9 0.002643 161.46 0.002643 161.46 0.999992 -41.23
9.34274837 0.999989 -175.9 0.002642 161.46 0.002642 161.46 0.999992 -41.23
9.34291345 0.999989 -175.9 0.002641 161.46 0.002641 161.46 0.999992 -41.23
9.34307474 0.999989 -175.9 0.002639 161.45 0.002639 161.45 0.999992 -41.23
9.34323234 0.999989 -175.9 0.002638 161.45 0.002638 161.45 0.999992 -41.23
9.34338633 0.999989 -175.9 0.002637 161.45 0.002637 161.45 0.999992 -41.23
9.34353679 0.999989 -175.9 0.002636 161.45 0.002636 161.45 0.999992 -41.23
9.34368380 0.999989 -175.9 0.002635 161.45 0.002635 161.45 0.999992 -41.24
9.34382744 0.999989 -175.9 0.002634 161.44 0.002634 161.44 0.999992 -41.24
9.34396779 0.999989 -175.9 0.002633 161.44 0.002633 161.44 0.999992 -41.24
9.34410493 0.999989 -175.9 0.002632 161.44 0.002632 161.44 0.999992 -41.24
9.34423892 0.999989 -175.9 0.002631 161.44 0.002631 161.44 0.999992 -41.24
9.34436984 0.999989 -175.9 0.002630 161.44 0.002630 161.44 0.999992 -41.24
9.34449777 0.999989 -175.9 0.002629 161.44 0.002629 161.44 0.999993 -41.24
9.34462276 0.999989 -175.9 0.002628 161.43 0.002628 161.43 0.999993 -41.24
9.34474488 0.999989 -175.9 0.002628 161.43 0.002628 161.43 0.999993 -41.24
9.34486421 0.999989 -175.9 0.002627 161.43 0.002627 161.43 0.999993 -41.24
9.34498081 0.999989 -175.9 0.002626 161.43 0.002626 161.43 0.999993 -41.24
9.34509473 0.999989 -175.9 0.002625 161.43 0.002625 161.43 0.999993 -41.25
9.34520604 0.999989 -175.9 0.002624 161.43 0.002624 161.43 0.999993 -41.25
9.34531481 0.999989 -175.9 0.002624 161.43 0.002624 161.43 0.999993 -41.25
9.34542108 0.999989 -175.9 0.002623 161.42 0.002623 161.42 0.999993 -41.25
9.34552491 0.999989 -175.9 0.002622 161.42 0.002622 161.42 0.999993 -41.25
9.34562637 0.999989 -175.9 0.002621 161.42 0.002621 161.42 0.999993 -41.25
9.34572550 0.999989 -175.9 0.002621 161.42 0.002621 161.42 0.999993 -41.25
9.34582236 0.999989 -175.9 0.002620 161.42 0.002620 161.42 0.999993 -41.25
9.34591700 0.999989 -175.9 0.002619 161.42 0.002619 161.42 0.999993 -41.25
9.34600947 0.999989 -175.9 0.002619 161.42 0.002619 161.42 0.999993 -41.25
9.34609982 0.999989 -175.9 0.002618 161.41 0.002618 161.41 0.999993 -41.25
9.34618811 0.999989 -175.9 0.002617 161.41 0.002617 161.41 0.999993 -41.25
9.34627436 0.999989 -175.9 0.002617 161.41 0.002617 161.41 0.999993 -41.25
9.34635865 0.999989 -175.9 0.002616 161.41 0.002616 161.41 0.999993 -41.25
9.34644100 0.999989 -175.9 0.002616 161.41 0.002616 161.41 0.999993 -41.25
9.34652146 0.999989 -175.9 0.002615 161.41 0.002615 161.41 0.999993 -41.25
9.34660009 0.999989 -175.9 0.002615 161.41 0.002615 161.41 0.999993 -41.26
9.34667690 0.999989 -175.9 0.002614 161.41 0.002614 161.41 0.999993 -41.26
