! Sonnet Data File
! From: emgraph Version : 16.54
! From Project: BusResonator_17
! Data is De-embedded 
! Data File Written: 08/31/2017 18:33:07
!< HDATE 08/31/2017 16:58:22
!< MDATE 08/31/2017 17:03:00
!< PARAMS
!< BusLengthControl = 4100.0
!< END PARAMS
# GHZ S MA R 50.00000
6.00000000 0.999993 -148.9 2.010e-5 -177.3 2.010e-5 -177.3 0.999998 -25.71
!< P1 F=6.0 Eeff=(6.44857038 -2.9736e-5) Z0=(51.7893065 1.19468e-4) R=0.05083541 C=0.00240605 
!< P2 F=6.0 Eeff=(6.44857038 -2.9736e-5) Z0=(51.7893065 1.19468e-4) R=0.05083541 C=0.00240605 
6.05000000 0.999993 -150.2 2.028e-5 -178.1 2.028e-5 -178.1 0.999998 -25.93
6.10000000 0.999993 -151.5 2.046e-5 -178.8 2.046e-5 -178.8 0.999998 -26.15
6.15000000 0.999993 -152.8 2.063e-5 -179.6 2.063e-5 -179.6 0.999998 -26.37
6.20000000 0.999993 -154.1 2.080e-5 179.66 2.080e-5 179.66 0.999998 -26.59
6.25000000 0.999993 -155.4 2.097e-5 178.91 2.097e-5 178.91 0.999998 -26.81
6.30000000 0.999993 -156.7 2.113e-5 178.15 2.113e-5 178.15 0.999998 -27.03
6.35000000 0.999993 -158.0 2.128e-5 177.39 2.128e-5 177.39 0.999998 -27.25
6.40000000 0.999993 -159.2 2.142e-5 176.64 2.142e-5 176.64 0.999998 -27.47
6.45000000 0.999993 -160.5 2.156e-5 175.88 2.156e-5 175.88 0.999998 -27.69
6.50000000 0.999993 -161.8 2.169e-5 175.13 2.169e-5 175.13 0.999998 -27.92
6.55000000 0.999993 -163.1 2.181e-5 174.37 2.181e-5 174.37 0.999998 -28.14
6.60000000 0.999993 -164.4 2.192e-5 173.61 2.192e-5 173.61 0.999998 -28.36
6.65000000 0.999993 -165.7 2.202e-5 172.86 2.202e-5 172.86 0.999998 -28.58
6.70000000 0.999993 -167.0 2.211e-5 172.10 2.211e-5 172.10 0.999998 -28.80
6.75000000 0.999993 -168.3 2.218e-5 171.34 2.218e-5 171.34 0.999998 -29.03
!< P1 F=6.75 Eeff=(6.44817432 -2.9732e-5) Z0=(51.7874469 1.19473e-4) R=0.04519655 C=0.00240604 
!< P2 F=6.75 Eeff=(6.44817432 -2.9732e-5) Z0=(51.7874469 1.19473e-4) R=0.04519655 C=0.00240604 
6.80000000 0.999992 -169.6 2.224e-5 170.58 2.224e-5 170.58 0.999998 -29.25
6.85000000 0.999992 -170.9 2.228e-5 169.83 2.228e-5 169.83 0.999998 -29.47
6.90000000 0.999992 -172.2 2.231e-5 169.07 2.231e-5 169.07 0.999998 -29.70
6.95000000 0.999992 -173.5 2.231e-5 168.31 2.231e-5 168.31 0.999998 -29.92
7.00000000 0.999992 -174.8 2.230e-5 167.55 2.230e-5 167.55 0.999998 -30.14
7.05000000 0.999992 -176.0 2.227e-5 166.79 2.227e-5 166.79 0.999998 -30.37
7.10000000 0.999992 -177.3 2.221e-5 166.03 2.221e-5 166.03 0.999998 -30.59
7.15000000 0.999992 -178.6 2.212e-5 165.28 2.212e-5 165.28 0.999998 -30.82
7.20000000 0.999992 -179.9 2.201e-5 164.52 2.201e-5 164.52 0.999998 -31.04
7.25000000 0.999992 178.78 2.187e-5 163.76 2.187e-5 163.76 0.999998 -31.27
7.30000000 0.999992 177.48 2.169e-5 163.00 2.169e-5 163.00 0.999998 -31.50
7.35000000 0.999992 176.19 2.148e-5 162.24 2.148e-5 162.24 0.999998 -31.72
7.40000000 0.999992 174.90 2.122e-5 161.48 2.122e-5 161.48 0.999997 -31.95
7.45000000 0.999992 173.60 2.093e-5 160.72 2.093e-5 160.72 0.999997 -32.18
7.50000000 0.999992 172.31 2.058e-5 159.96 2.058e-5 159.96 0.999997 -32.41
7.55000000 0.999992 171.02 2.019e-5 159.20 2.019e-5 159.20 0.999997 -32.64
7.60000000 0.999992 169.72 1.973e-5 158.44 1.973e-5 158.44 0.999997 -32.87
7.65000000 0.999992 168.43 1.922e-5 157.67 1.922e-5 157.67 0.999997 -33.10
7.70000000 0.999992 167.14 1.864e-5 156.91 1.864e-5 156.91 0.999997 -33.33
7.75000000 0.999992 165.85 1.799e-5 156.15 1.799e-5 156.15 0.999997 -33.56
7.80000000 0.999992 164.56 1.725e-5 155.39 1.725e-5 155.39 0.999997 -33.79
7.85000000 0.999992 163.26 1.643e-5 154.63 1.643e-5 154.63 0.999997 -34.03
7.90000000 0.999992 161.97 1.551e-5 153.87 1.551e-5 153.87 0.999997 -34.26
7.95000000 0.999992 160.68 1.449e-5 153.10 1.449e-5 153.10 0.999997 -34.49
8.00000000 0.999992 159.39 1.335e-5 152.34 1.335e-5 152.34 0.999997 -34.73
8.05000000 0.999992 158.10 1.208e-5 151.58 1.208e-5 151.58 0.999997 -34.97
8.10000000 0.999992 156.81 1.067e-5 150.82 1.067e-5 150.82 0.999997 -35.20
8.15000000 0.999992 155.52 9.106e-6 150.06 9.106e-6 150.06 0.999997 -35.44
8.20000000 0.999992 154.23 7.369e-6 149.29 7.369e-6 149.29 0.999997 -35.68
8.25000000 0.999992 152.95 5.441e-6 148.53 5.441e-6 148.53 0.999997 -35.92
8.30000000 0.999992 151.66 3.303e-6 147.78 3.303e-6 147.78 0.999997 -36.17
8.35000000 0.999992 150.37 9.299e-7 147.10 9.299e-7 147.10 0.999997 -36.41
8.40000000 0.999992 149.08 1.704e-6 -33.85 1.704e-6 -33.85 0.999997 -36.65
8.45000000 0.999992 147.80 4.628e-6 -34.57 4.628e-6 -34.57 0.999997 -36.90
8.50000000 0.999992 146.51 7.878e-6 -35.33 7.878e-6 -35.33 0.999997 -37.15
8.55000000 0.999992 145.23 1.149e-5 -36.09 1.149e-5 -36.09 0.999997 -37.40
8.60000000 0.999992 143.94 1.552e-5 -36.86 1.552e-5 -36.86 0.999997 -37.65
!< P1 F=8.6 Eeff=(6.44699798 -2.9721e-5) Z0=(51.781679 1.1949e-4) R=0.03547183 C=0.002406 
!< P2 F=8.6 Eeff=(6.44699798 -2.9721e-5) Z0=(51.781679 1.1949e-4) R=0.03547183 C=0.002406 
8.65000000 0.999992 142.66 2.000e-5 -37.63 2.000e-5 -37.63 0.999997 -37.91
8.70000000 0.999992 141.37 2.500e-5 -38.40 2.500e-5 -38.40 0.999997 -38.16
8.75000000 0.999992 140.09 3.060e-5 -39.17 3.060e-5 -39.17 0.999997 -38.42
8.80000000 0.999992 138.81 3.687e-5 -39.94 3.687e-5 -39.94 0.999997 -38.69
8.85000000 0.999992 137.53 4.390e-5 -40.71 4.390e-5 -40.71 0.999997 -38.95
8.90000000 0.999992 136.25 5.181e-5 -41.49 5.181e-5 -41.49 0.999997 -39.22
8.95000000 0.999992 134.97 6.073e-5 -42.27 6.073e-5 -42.27 0.999997 -39.50
9.00000000 0.999992 133.69 7.082e-5 -43.05 7.082e-5 -43.05 0.999997 -39.78
9.05000000 0.999992 132.41 8.228e-5 -43.83 8.228e-5 -43.83 0.999996 -40.06
9.10000000 0.999992 131.13 9.532e-5 -44.61 9.532e-5 -44.61 0.999996 -40.35
9.15000000 0.999992 129.85 1.102e-4 -45.40 1.102e-4 -45.40 0.999996 -40.65
9.20000000 0.999992 128.58 1.274e-4 -46.19 1.274e-4 -46.19 0.999996 -40.95
9.25000000 0.999992 127.30 1.472e-4 -46.98 1.472e-4 -46.98 0.999996 -41.27
9.30000000 0.999992 126.03 1.702e-4 -47.78 1.702e-4 -47.78 0.999996 -41.59
9.35000000 0.999992 124.75 1.971e-4 -48.59 1.971e-4 -48.59 0.999996 -41.93
9.40000000 0.999992 123.48 2.288e-4 -49.40 2.288e-4 -49.40 0.999996 -42.29
9.45000000 0.999992 122.21 2.666e-4 -50.23 2.666e-4 -50.23 0.999996 -42.66
9.50000000 0.999992 120.94 3.119e-4 -51.06 3.119e-4 -51.06 0.999996 -43.06
9.55000000 0.999992 119.67 3.671e-4 -51.91 3.671e-4 -51.91 0.999995 -43.48
9.60000000 0.999992 118.40 4.353e-4 -52.78 4.353e-4 -52.78 0.999995 -43.95
9.65000000 0.999992 117.13 5.211e-4 -53.67 5.211e-4 -53.67 0.999994 -44.47
9.70000000 0.999992 115.86 6.313e-4 -54.60 6.313e-4 -54.60 0.999994 -45.06
9.75000000 0.999992 114.59 7.772e-4 -55.59 7.772e-4 -55.59 0.999993 -45.76
9.80000000 0.999992 113.33 9.775e-4 -56.65 9.775e-4 -56.65 0.999991 -46.61
9.85000000 0.999991 112.06 0.001267 -57.83 0.001267 -57.83 0.999989 -47.71
9.90000000 0.999991 110.80 0.001717 -59.25 0.001717 -59.25 0.999984 -49.28
9.95000000 0.999989 109.53 0.002501 -61.14 0.002501 -61.14 0.999973 -51.79
10.0000000 0.999983 108.27 0.004186 -64.31 0.004186 -64.31 0.999938 -56.85
10.0500000 0.999941 107.00 0.010119 -73.60 0.010119 -73.60 0.999691 -74.14
10.1000000 0.999641 105.77 0.026461 160.67 0.026461 160.67 0.998110 35.467
10.1500000 0.999966 104.50 0.007174 129.41 0.007174 129.41 0.999871 -25.71
10.2000000 0.999983 103.24 0.004298 124.52 0.004298 124.52 0.999955 -34.22
10.2500000 0.999987 101.98 0.003191 122.15 0.003191 122.15 0.999976 -37.69
10.3000000 0.999988 100.72 0.002615 120.53 0.002615 120.53 0.999983 -39.66
10.3500000 0.999989 99.464 0.002268 119.24 0.002268 119.24 0.999987 -40.99
10.4000000 0.999990 98.209 0.002043 118.11 0.002043 118.11 0.999989 -42.00
10.4500000 0.999990 96.955 0.001890 117.08 0.001890 117.08 0.999991 -42.81
!< P1 F=10.45 Eeff=(6.44553905 -2.9708e-5) Z0=(51.7738764 1.19516e-4) R=0.02914135 C=0.00240595 
!< P2 F=10.45 Eeff=(6.44553905 -2.9708e-5) Z0=(51.7738764 1.19516e-4) R=0.02914135 C=0.00240595 
10.5000000 0.999990 95.702 0.001784 116.10 0.001784 116.10 0.999992 -43.50
10.5500000 0.999990 94.450 0.001711 115.17 0.001711 115.17 0.999992 -44.11
10.6000000 0.999990 93.199 0.001662 114.26 0.001662 114.26 0.999992 -44.68
10.6500000 0.999990 91.949 0.001633 113.37 0.001633 113.37 0.999993 -45.20
10.7000000 0.999990 90.700 0.001619 112.50 0.001619 112.50 0.999993 -45.71
10.7500000 0.999990 89.452 0.001619 111.63 0.001619 111.63 0.999993 -46.20
10.8000000 0.999990 88.205 0.001632 110.76 0.001632 110.76 0.999993 -46.69
10.8500000 0.999990 86.959 0.001656 109.89 0.001656 109.89 0.999993 -47.17
10.8554383 0.999990 86.823 0.001660 109.80 0.001660 109.80 0.999993 -47.22
10.8607521 0.999990 86.691 0.001663 109.71 0.001663 109.71 0.999993 -47.28
10.8659440 0.999990 86.562 0.001667 109.62 0.001667 109.62 0.999993 -47.33
10.8710170 0.999990 86.435 0.001670 109.53 0.001670 109.53 0.999993 -47.38
10.8759738 0.999990 86.312 0.001674 109.44 0.001674 109.44 0.999993 -47.43
10.8808170 0.999990 86.191 0.001678 109.36 0.001678 109.36 0.999993 -47.47
10.8855492 0.999990 86.074 0.001681 109.28 0.001681 109.28 0.999993 -47.52
10.8901729 0.999990 85.958 0.001685 109.20 0.001685 109.20 0.999993 -47.56
10.8946908 0.999990 85.846 0.001689 109.12 0.001689 109.12 0.999993 -47.61
10.8991051 0.999990 85.736 0.001693 109.04 0.001693 109.04 0.999993 -47.65
10.9000000 0.999990 85.714 0.001693 109.03 0.001693 109.03 0.999993 -47.66
10.9034182 0.999990 85.629 0.001696 108.97 0.001696 108.97 0.999992 -47.70
10.9076326 0.999990 85.524 0.001700 108.89 0.001700 108.89 0.999992 -47.74
10.9117503 0.999990 85.421 0.001704 108.82 0.001704 108.82 0.999992 -47.78
10.9157737 0.999990 85.321 0.001708 108.75 0.001708 108.75 0.999992 -47.82
10.9197049 0.999990 85.223 0.001711 108.68 0.001711 108.68 0.999992 -47.86
10.9235461 0.999990 85.128 0.001715 108.61 0.001715 108.61 0.999992 -47.90
10.9272992 0.999990 85.034 0.001719 108.55 0.001719 108.55 0.999992 -47.93
10.9309663 0.999990 84.943 0.001723 108.49 0.001723 108.49 0.999992 -47.97
10.9345494 0.999990 84.854 0.001726 108.42 0.001726 108.42 0.999992 -48.01
10.9380504 0.999990 84.767 0.001730 108.36 0.001730 108.36 0.999992 -48.04
10.9414712 0.999990 84.682 0.001734 108.30 0.001734 108.30 0.999992 -48.08
10.9448136 0.999990 84.599 0.001737 108.24 0.001737 108.24 0.999992 -48.11
10.9480794 0.999990 84.517 0.001741 108.19 0.001741 108.19 0.999992 -48.14
10.9500000 0.999990 84.470 0.001743 108.15 0.001743 108.15 0.999992 -48.16
10.9512703 0.999990 84.438 0.001744 108.13 0.001744 108.13 0.999992 -48.18
10.9543882 0.999990 84.360 0.001748 108.07 0.001748 108.07 0.999992 -48.21
10.9574346 0.999990 84.285 0.001752 108.02 0.001752 108.02 0.999992 -48.24
10.9604112 0.999990 84.211 0.001755 107.97 0.001755 107.97 0.999992 -48.27
10.9633196 0.999990 84.138 0.001758 107.92 0.001758 107.92 0.999992 -48.30
10.9661613 0.999990 84.068 0.001762 107.87 0.001762 107.87 0.999992 -48.33
10.9689380 0.999990 83.999 0.001765 107.82 0.001765 107.82 0.999992 -48.36
10.9716510 0.999990 83.931 0.001769 107.77 0.001769 107.77 0.999992 -48.39
10.9743019 0.999990 83.865 0.001772 107.72 0.001772 107.72 0.999992 -48.41
10.9768920 0.999990 83.801 0.001775 107.68 0.001775 107.68 0.999992 -48.44
10.9794227 0.999990 83.738 0.001779 107.63 0.001779 107.63 0.999992 -48.47
10.9818955 0.999990 83.677 0.001782 107.59 0.001782 107.59 0.999992 -48.49
10.9843116 0.999990 83.616 0.001785 107.55 0.001785 107.55 0.999992 -48.52
10.9866724 0.999990 83.558 0.001788 107.51 0.001788 107.51 0.999992 -48.54
10.9889790 0.999990 83.500 0.001791 107.47 0.001791 107.47 0.999992 -48.57
10.9912328 0.999990 83.444 0.001794 107.43 0.001794 107.43 0.999992 -48.59
10.9934350 0.999990 83.390 0.001797 107.39 0.001797 107.39 0.999992 -48.61
10.9955867 0.999990 83.336 0.001800 107.35 0.001800 107.35 0.999992 -48.64
10.9976891 0.999990 83.284 0.001803 107.31 0.001803 107.31 0.999992 -48.66
10.9997433 0.999990 83.233 0.001806 107.27 0.001806 107.27 0.999992 -48.68
11.0000000 0.999990 83.226 0.001806 107.27 0.001806 107.27 0.999992 -48.68
11.0017505 0.999990 83.183 0.001809 107.24 0.001809 107.24 0.999992 -48.70
11.0037116 0.999990 83.134 0.001812 107.20 0.001812 107.20 0.999992 -48.72
11.0056278 0.999990 83.087 0.001814 107.17 0.001814 107.17 0.999992 -48.74
11.0075002 0.999990 83.040 0.001817 107.14 0.001817 107.14 0.999992 -48.76
11.0093296 0.999990 82.995 0.001820 107.10 0.001820 107.10 0.999992 -48.78
11.0111171 0.999990 82.950 0.001823 107.07 0.001823 107.07 0.999992 -48.80
11.0128636 0.999990 82.907 0.001825 107.04 0.001825 107.04 0.999992 -48.82
11.0145701 0.999990 82.864 0.001828 107.01 0.001828 107.01 0.999992 -48.84
11.0162375 0.999990 82.823 0.001830 106.98 0.001830 106.98 0.999992 -48.86
11.0178667 0.999990 82.782 0.001833 106.95 0.001833 106.95 0.999992 -48.88
11.0194586 0.999990 82.743 0.001835 106.92 0.001835 106.92 0.999992 -48.89
11.0210140 0.999990 82.704 0.001838 106.90 0.001838 106.90 0.999992 -48.91
11.0225338 0.999990 82.667 0.001840 106.87 0.001840 106.87 0.999992 -48.93
11.0240187 0.999990 82.630 0.001842 106.84 0.001842 106.84 0.999992 -48.94
11.0254696 0.999990 82.594 0.001845 106.82 0.001845 106.82 0.999992 -48.96
11.0268873 0.999990 82.558 0.001847 106.79 0.001847 106.79 0.999992 -48.97
11.0282725 0.999990 82.524 0.001849 106.77 0.001849 106.77 0.999992 -48.99
11.0296259 0.999990 82.490 0.001851 106.74 0.001851 106.74 0.999992 -49.00
11.0309483 0.999990 82.457 0.001853 106.72 0.001853 106.72 0.999992 -49.02
11.0322405 0.999990 82.425 0.001855 106.70 0.001855 106.70 0.999992 -49.03
11.0335030 0.999990 82.394 0.001857 106.67 0.001857 106.67 0.999992 -49.05
11.0347366 0.999990 82.363 0.001859 106.65 0.001859 106.65 0.999992 -49.06
11.0359419 0.999990 82.333 0.001861 106.63 0.001861 106.63 0.999992 -49.07
11.0371196 0.999990 82.304 0.001863 106.61 0.001863 106.61 0.999992 -49.09
11.0382703 0.999990 82.276 0.001865 106.59 0.001865 106.59 0.999992 -49.10
11.0393947 0.999990 82.248 0.001867 106.57 0.001867 106.57 0.999992 -49.11
11.0404933 0.999990 82.220 0.001869 106.55 0.001869 106.55 0.999992 -49.12
11.0415667 0.999990 82.194 0.001871 106.53 0.001871 106.53 0.999992 -49.13
11.0426155 0.999989 82.168 0.001873 106.51 0.001873 106.51 0.999992 -49.15
11.0436403 0.999989 82.142 0.001874 106.49 0.001874 106.49 0.999992 -49.16
11.0446416 0.999989 82.117 0.001876 106.47 0.001876 106.47 0.999992 -49.17
11.0456200 0.999989 82.093 0.001878 106.46 0.001878 106.46 0.999992 -49.18
11.0465759 0.999989 82.069 0.001879 106.44 0.001879 106.44 0.999992 -49.19
11.0475100 0.999989 82.046 0.001881 106.42 0.001881 106.42 0.999992 -49.20
11.0484226 0.999989 82.023 0.001883 106.40 0.001883 106.40 0.999992 -49.21
11.0493143 0.999989 82.001 0.001884 106.39 0.001884 106.39 0.999992 -49.22
11.0500000 0.999989 81.984 0.001885 106.38 0.001885 106.38 0.999992 -49.23
11.0501856 0.999989 81.980 0.001886 106.37 0.001886 106.37 0.999992 -49.23
11.0510369 0.999989 81.959 0.001887 106.36 0.001887 106.36 0.999992 -49.24
11.0518688 0.999989 81.938 0.001889 106.34 0.001889 106.34 0.999991 -49.25
11.0526815 0.999989 81.918 0.001890 106.33 0.001890 106.33 0.999991 -49.26
11.0534757 0.999989 81.898 0.001891 106.31 0.001891 106.31 0.999991 -49.27
11.0542516 0.999989 81.879 0.001893 106.30 0.001893 106.30 0.999991 -49.28
11.0550098 0.999989 81.860 0.001894 106.29 0.001894 106.29 0.999991 -49.29
11.0557505 0.999989 81.841 0.001896 106.27 0.001896 106.27 0.999991 -49.29
11.0564744 0.999989 81.823 0.001897 106.26 0.001897 106.26 0.999991 -49.30
11.0571816 0.999989 81.806 0.001898 106.25 0.001898 106.25 0.999991 -49.31
11.0578726 0.999989 81.789 0.001899 106.23 0.001899 106.23 0.999991 -49.32
11.0585478 0.999989 81.772 0.001901 106.22 0.001901 106.22 0.999991 -49.33
11.0592075 0.999989 81.756 0.001902 106.21 0.001902 106.21 0.999991 -49.33
11.0598521 0.999989 81.740 0.001903 106.20 0.001903 106.20 0.999991 -49.34
11.0604820 0.999989 81.724 0.001904 106.19 0.001904 106.19 0.999991 -49.35
11.0610974 0.999989 81.709 0.001905 106.18 0.001905 106.18 0.999991 -49.35
11.0616987 0.999989 81.694 0.001906 106.17 0.001906 106.17 0.999991 -49.36
11.0622862 0.999989 81.679 0.001907 106.15 0.001907 106.15 0.999991 -49.37
11.0628602 0.999989 81.665 0.001908 106.14 0.001908 106.14 0.999991 -49.37
11.0634211 0.999989 81.651 0.001909 106.13 0.001909 106.13 0.999991 -49.38
11.0639692 0.999989 81.637 0.001910 106.12 0.001910 106.12 0.999991 -49.39
11.0645047 0.999989 81.624 0.001911 106.11 0.001911 106.11 0.999991 -49.39
11.0650279 0.999989 81.611 0.001912 106.10 0.001912 106.10 0.999991 -49.40
11.0655391 0.999989 81.598 0.001913 106.10 0.001913 106.10 0.999991 -49.40
11.0660387 0.999989 81.586 0.001914 106.09 0.001914 106.09 0.999991 -49.41
11.0665267 0.999989 81.574 0.001915 106.08 0.001915 106.08 0.999991 -49.42
11.0670036 0.999989 81.562 0.001916 106.07 0.001916 106.07 0.999991 -49.42
11.0674696 0.999989 81.550 0.001917 106.06 0.001917 106.06 0.999991 -49.43
11.0679249 0.999989 81.539 0.001918 106.05 0.001918 106.05 0.999991 -49.43
11.0683697 0.999989 81.528 0.001919 106.04 0.001919 106.04 0.999991 -49.44
11.0688044 0.999989 81.517 0.001920 106.04 0.001920 106.04 0.999991 -49.44
11.0692291 0.999989 81.507 0.001920 106.03 0.001920 106.03 0.999991 -49.45
11.0696441 0.999989 81.496 0.001921 106.02 0.001921 106.02 0.999991 -49.45
11.0700495 0.999989 81.486 0.001922 106.01 0.001922 106.01 0.999991 -49.46
11.0704457 0.999989 81.477 0.001923 106.01 0.001923 106.01 0.999991 -49.46
11.0708328 0.999989 81.467 0.001923 106.00 0.001923 106.00 0.999991 -49.47
11.0712110 0.999989 81.458 0.001924 105.99 0.001924 105.99 0.999991 -49.47
11.0715806 0.999989 81.448 0.001925 105.99 0.001925 105.99 0.999991 -49.47
11.0719417 0.999989 81.439 0.001925 105.98 0.001925 105.98 0.999991 -49.48
11.0722945 0.999989 81.431 0.001926 105.97 0.001926 105.97 0.999991 -49.48
11.0726392 0.999989 81.422 0.001927 105.97 0.001927 105.97 0.999991 -49.49
11.0729760 0.999989 81.414 0.001927 105.96 0.001927 105.96 0.999991 -49.49
11.0733052 0.999989 81.406 0.001928 105.95 0.001928 105.95 0.999991 -49.49
11.0736267 0.999989 81.398 0.001929 105.95 0.001929 105.95 0.999991 -49.50
11.0739409 0.999989 81.390 0.001929 105.94 0.001929 105.94 0.999991 -49.50
11.0742479 0.999989 81.382 0.001930 105.94 0.001930 105.94 0.999991 -49.50
11.0745479 0.999989 81.375 0.001931 105.93 0.001931 105.93 0.999991 -49.51
11.0748410 0.999989 81.367 0.001931 105.93 0.001931 105.93 0.999991 -49.51
11.0751274 0.999989 81.360 0.001932 105.92 0.001932 105.92 0.999991 -49.51
11.0754072 0.999989 81.353 0.001932 105.92 0.001932 105.92 0.999991 -49.52
11.0756806 0.999989 81.347 0.001933 105.91 0.001933 105.91 0.999991 -49.52
11.0759477 0.999989 81.340 0.001933 105.91 0.001933 105.91 0.999991 -49.52
11.0762088 0.999989 81.334 0.001934 105.90 0.001934 105.90 0.999991 -49.53
11.0764638 0.999989 81.327 0.001934 105.90 0.001934 105.90 0.999991 -49.53
11.0767130 0.999989 81.321 0.001935 105.89 0.001935 105.89 0.999991 -49.53
11.0769565 0.999989 81.315 0.001935 105.89 0.001935 105.89 0.999991 -49.54
11.0771944 0.999989 81.309 0.001936 105.88 0.001936 105.88 0.999991 -49.54
11.0774268 0.999989 81.303 0.001936 105.88 0.001936 105.88 0.999991 -49.54
11.0776540 0.999989 81.298 0.001937 105.88 0.001937 105.88 0.999991 -49.54
11.0778759 0.999989 81.292 0.001937 105.87 0.001937 105.87 0.999991 -49.55
11.0780927 0.999989 81.287 0.001937 105.87 0.001937 105.87 0.999991 -49.55
11.0783046 0.999989 81.281 0.001938 105.86 0.001938 105.86 0.999991 -49.55
11.0785116 0.999989 81.276 0.001938 105.86 0.001938 105.86 0.999991 -49.55
11.0787139 0.999989 81.271 0.001939 105.86 0.001939 105.86 0.999991 -49.56
11.0789115 0.999989 81.266 0.001939 105.85 0.001939 105.85 0.999991 -49.56
11.0791046 0.999989 81.262 0.001939 105.85 0.001939 105.85 0.999991 -49.56
11.0792933 0.999989 81.257 0.001940 105.85 0.001940 105.85 0.999991 -49.56
11.0794777 0.999989 81.252 0.001940 105.84 0.001940 105.84 0.999991 -49.57
