! Sonnet Data File
! From: emgraph Version : 16.54
! From Project: BusResonator_17
! Data is De-embedded 
! Data File Written: 08/31/2017 18:33:07
!< HDATE 08/31/2017 16:58:22
!< MDATE 08/31/2017 17:03:00
!< PARAMS
!< BusLengthControl = 1600.0
!< END PARAMS
# GHZ S MA R 50.00000
6.00000000 0.999996 -56.52 9.710e-5 -131.1 9.710e-5 -131.1 0.999998 -25.72
!< P1 F=6.0 Eeff=(6.44857038 -2.9736e-5) Z0=(51.7893065 1.19468e-4) R=0.05083541 C=0.00240605 
!< P2 F=6.0 Eeff=(6.44857038 -2.9736e-5) Z0=(51.7893065 1.19468e-4) R=0.05083541 C=0.00240605 
6.05000000 0.999996 -57.00 1.006e-4 -131.5 1.006e-4 -131.5 0.999998 -25.94
6.10000000 0.999996 -57.48 1.044e-4 -131.8 1.044e-4 -131.8 0.999998 -26.16
6.15000000 0.999996 -57.95 1.084e-4 -132.2 1.084e-4 -132.2 0.999998 -26.38
6.20000000 0.999996 -58.43 1.127e-4 -132.5 1.127e-4 -132.5 0.999998 -26.60
6.25000000 0.999996 -58.91 1.172e-4 -132.9 1.172e-4 -132.9 0.999998 -26.82
6.30000000 0.999996 -59.38 1.221e-4 -133.2 1.221e-4 -133.2 0.999998 -27.04
6.35000000 0.999996 -59.86 1.274e-4 -133.6 1.274e-4 -133.6 0.999998 -27.27
6.40000000 0.999996 -60.34 1.331e-4 -133.9 1.331e-4 -133.9 0.999998 -27.49
6.45000000 0.999996 -60.81 1.392e-4 -134.3 1.392e-4 -134.3 0.999998 -27.71
6.50000000 0.999996 -61.29 1.459e-4 -134.6 1.459e-4 -134.6 0.999998 -27.93
6.55000000 0.999995 -61.77 1.532e-4 -135.0 1.532e-4 -135.0 0.999998 -28.15
6.60000000 0.999995 -62.25 1.612e-4 -135.3 1.612e-4 -135.3 0.999998 -28.38
6.65000000 0.999995 -62.72 1.700e-4 -135.7 1.700e-4 -135.7 0.999998 -28.60
6.70000000 0.999995 -63.20 1.799e-4 -136.0 1.799e-4 -136.0 0.999998 -28.82
6.75000000 0.999995 -63.68 1.908e-4 -136.4 1.908e-4 -136.4 0.999998 -29.04
6.80000000 0.999995 -64.16 2.032e-4 -136.7 2.032e-4 -136.7 0.999998 -29.27
6.85000000 0.999995 -64.64 2.173e-4 -137.1 2.173e-4 -137.1 0.999998 -29.49
6.90000000 0.999995 -65.12 2.335e-4 -137.4 2.335e-4 -137.4 0.999998 -29.72
6.95000000 0.999995 -65.60 2.524e-4 -137.8 2.524e-4 -137.8 0.999998 -29.94
7.00000000 0.999995 -66.08 2.748e-4 -138.1 2.748e-4 -138.1 0.999998 -30.17
7.05000000 0.999995 -66.56 3.017e-4 -138.5 3.017e-4 -138.5 0.999997 -30.40
7.10000000 0.999995 -67.04 3.349e-4 -138.8 3.349e-4 -138.8 0.999997 -30.62
7.15000000 0.999995 -67.52 3.769e-4 -139.2 3.769e-4 -139.2 0.999997 -30.85
7.20000000 0.999995 -68.00 4.320e-4 -139.5 4.320e-4 -139.5 0.999997 -31.08
7.25000000 0.999995 -68.48 5.078e-4 -139.9 5.078e-4 -139.9 0.999997 -31.31
7.25701401 0.999995 -68.55 5.207e-4 -140.0 5.207e-4 -140.0 0.999997 -31.35
7.26386731 0.999995 -68.61 5.341e-4 -140.0 5.341e-4 -140.0 0.999997 -31.38
7.27056357 0.999995 -68.68 5.480e-4 -140.0 5.480e-4 -140.0 0.999997 -31.41
7.27710640 0.999995 -68.74 5.622e-4 -140.1 5.622e-4 -140.1 0.999997 -31.44
7.28349930 0.999995 -68.80 5.770e-4 -140.1 5.770e-4 -140.1 0.999997 -31.47
7.28974572 0.999995 -68.86 5.922e-4 -140.2 5.922e-4 -140.2 0.999997 -31.50
7.29584901 0.999995 -68.92 6.079e-4 -140.2 6.079e-4 -140.2 0.999997 -31.53
7.30000000 0.999995 -68.96 6.191e-4 -140.3 6.191e-4 -140.3 0.999997 -31.55
7.30181245 0.999995 -68.98 6.241e-4 -140.3 6.241e-4 -140.3 0.999997 -31.56
7.30763925 0.999995 -69.04 6.409e-4 -140.3 6.409e-4 -140.3 0.999997 -31.59
7.31333253 0.999995 -69.09 6.583e-4 -140.4 6.583e-4 -140.4 0.999997 -31.61
7.31889535 0.999995 -69.15 6.762e-4 -140.4 6.762e-4 -140.4 0.999997 -31.64
7.32433071 0.999995 -69.20 6.948e-4 -140.4 6.948e-4 -140.4 0.999997 -31.67
7.32964153 0.999995 -69.25 7.141e-4 -140.5 7.141e-4 -140.5 0.999997 -31.69
7.33483066 0.999995 -69.30 7.340e-4 -140.5 7.340e-4 -140.5 0.999997 -31.72
7.33990088 0.999995 -69.35 7.547e-4 -140.6 7.547e-4 -140.6 0.999997 -31.74
7.34485492 0.999995 -69.40 7.761e-4 -140.6 7.761e-4 -140.6 0.999997 -31.77
7.34969545 0.999995 -69.45 7.983e-4 -140.6 7.983e-4 -140.6 0.999997 -31.79
7.35000000 0.999995 -69.45 7.997e-4 -140.6 7.997e-4 -140.6 0.999997 -31.79
7.35442507 0.999995 -69.49 8.213e-4 -140.7 8.213e-4 -140.7 0.999997 -31.81
7.35904631 0.999995 -69.54 8.452e-4 -140.7 8.452e-4 -140.7 0.999997 -31.84
7.36356166 0.999995 -69.58 8.701e-4 -140.7 8.701e-4 -140.7 0.999997 -31.86
7.36797354 0.999995 -69.63 8.959e-4 -140.8 8.959e-4 -140.8 0.999997 -31.88
7.37228434 0.999994 -69.67 9.227e-4 -140.8 9.227e-4 -140.8 0.999997 -31.90
7.37649636 0.999994 -69.71 9.506e-4 -140.8 9.506e-4 -140.8 0.999997 -31.92
7.38061186 0.999994 -69.75 9.796e-4 -140.9 9.796e-4 -140.9 0.999997 -31.94
7.38463306 0.999994 -69.79 0.001010 -140.9 0.001010 -140.9 0.999997 -31.97
7.38856212 0.999994 -69.83 0.001041 -140.9 0.001041 -140.9 0.999997 -31.99
7.39240116 0.999994 -69.87 0.001074 -140.9 0.001074 -140.9 0.999997 -32.01
7.39615222 0.999994 -69.91 0.001108 -141.0 0.001108 -141.0 0.999997 -32.03
7.39981733 0.999994 -69.94 0.001144 -141.0 0.001144 -141.0 0.999997 -32.04
7.40000000 0.999994 -69.94 0.001146 -141.0 0.001146 -141.0 0.999997 -32.05
7.40339847 0.999994 -69.98 0.001182 -141.0 0.001182 -141.0 0.999996 -32.06
7.40689754 0.999994 -70.01 0.001221 -141.1 0.001221 -141.1 0.999996 -32.08
7.41031644 0.999994 -70.05 0.001262 -141.1 0.001262 -141.1 0.999996 -32.10
7.41365700 0.999994 -70.08 0.001304 -141.1 0.001304 -141.1 0.999996 -32.12
7.41692101 0.999994 -70.11 0.001349 -141.1 0.001349 -141.1 0.999996 -32.14
7.42011023 0.999994 -70.15 0.001396 -141.2 0.001396 -141.2 0.999996 -32.16
7.42322638 0.999994 -70.18 0.001445 -141.2 0.001445 -141.2 0.999996 -32.17
7.42627112 0.999994 -70.21 0.001497 -141.2 0.001497 -141.2 0.999996 -32.19
7.42924609 0.999994 -70.24 0.001552 -141.2 0.001552 -141.2 0.999996 -32.21
7.43215290 0.999993 -70.27 0.001609 -141.3 0.001609 -141.3 0.999996 -32.23
7.43499310 0.999993 -70.30 0.001670 -141.3 0.001670 -141.3 0.999995 -32.25
7.43776823 0.999993 -70.33 0.001734 -141.3 0.001734 -141.3 0.999995 -32.26
7.44047976 0.999993 -70.36 0.001801 -141.3 0.001801 -141.3 0.999995 -32.28
7.44312916 0.999993 -70.39 0.001873 -141.4 0.001873 -141.4 0.999995 -32.30
7.44571786 0.999993 -70.42 0.001948 -141.4 0.001948 -141.4 0.999995 -32.32
7.44824723 0.999992 -70.44 0.002029 -141.4 0.002029 -141.4 0.999995 -32.33
7.45000000 0.999992 -70.46 0.002089 -141.4 0.002089 -141.4 0.999994 -32.35
7.45071865 0.999992 -70.47 0.002114 -141.4 0.002114 -141.4 0.999994 -32.35
7.45313344 0.999992 -70.50 0.002205 -141.5 0.002205 -141.5 0.999994 -32.37
7.45549290 0.999992 -70.52 0.002302 -141.5 0.002302 -141.5 0.999994 -32.39
7.45779830 0.999991 -70.55 0.002405 -141.5 0.002405 -141.5 0.999993 -32.41
7.46005086 0.999991 -70.58 0.002516 -141.5 0.002516 -141.5 0.999993 -32.43
7.46225182 0.999991 -70.60 0.002635 -141.5 0.002635 -141.5 0.999993 -32.45
7.46440234 0.999990 -70.63 0.002763 -141.6 0.002763 -141.6 0.999992 -32.47
7.46650359 0.999990 -70.66 0.002900 -141.6 0.002900 -141.6 0.999992 -32.49
7.46855668 0.999989 -70.68 0.003049 -141.6 0.003049 -141.6 0.999991 -32.51
7.47056274 0.999989 -70.71 0.003211 -141.6 0.003211 -141.6 0.999990 -32.53
7.47252282 0.999988 -70.73 0.003386 -141.7 0.003386 -141.7 0.999989 -32.55
7.47443800 0.999987 -70.76 0.003577 -141.7 0.003577 -141.7 0.999989 -32.57
7.47630929 0.999986 -70.79 0.003787 -141.7 0.003787 -141.7 0.999987 -32.60
7.47813770 0.999985 -70.81 0.004017 -141.8 0.004017 -141.8 0.999986 -32.63
7.47992422 0.999984 -70.84 0.004271 -141.8 0.004271 -141.8 0.999985 -32.65
7.48166980 0.999982 -70.87 0.004553 -141.8 0.004553 -141.8 0.999983 -32.68
7.48337538 0.999981 -70.90 0.004868 -141.8 0.004868 -141.8 0.999981 -32.72
7.48504188 0.999978 -70.93 0.005221 -141.9 0.005221 -141.9 0.999978 -32.75
7.48667019 0.999976 -70.96 0.005620 -141.9 0.005620 -141.9 0.999975 -32.79
7.48826120 0.999973 -71.00 0.006074 -142.0 0.006074 -142.0 0.999972 -32.83
7.48981575 0.999969 -71.04 0.006596 -142.0 0.006596 -142.0 0.999967 -32.88
7.49133467 0.999963 -71.08 0.007202 -142.1 0.007202 -142.1 0.999961 -32.93
7.49281880 0.999957 -71.12 0.007913 -142.1 0.007913 -142.1 0.999954 -33.00
7.49426891 0.999948 -71.17 0.008760 -142.2 0.008760 -142.2 0.999944 -33.07
7.49568580 0.999937 -71.23 0.009785 -142.3 0.009785 -142.3 0.999931 -33.15
7.49707023 0.999921 -71.29 0.011049 -142.4 0.011049 -142.4 0.999912 -33.26
7.49842293 0.999898 -71.37 0.012649 -142.5 0.012649 -142.5 0.999886 -33.39
7.49974463 0.999863 -71.47 0.014736 -142.6 0.014736 -142.6 0.999846 -33.56
7.50000000 0.999854 -71.50 0.015222 -142.7 0.015222 -142.7 0.999835 -33.60
!< P1 F=7.5 Eeff=(6.44773158 -2.9728e-5) Z0=(51.7853218 1.1948e-4) R=0.04067906 C=0.00240602 
!< P2 F=7.5 Eeff=(6.44773158 -2.9728e-5) Z0=(51.7853218 1.1948e-4) R=0.04067906 C=0.00240602 
7.50103605 0.999807 -71.61 0.017574 -142.8 0.017574 -142.8 0.999782 -33.78
7.50229788 0.999710 -71.79 0.021654 -143.1 0.021654 -143.1 0.999670 -34.11
7.50353079 0.999518 -72.07 0.028017 -143.6 0.028017 -143.6 0.999449 -34.61
7.50473546 0.999055 -72.56 0.039317 -144.4 0.039317 -144.4 0.998916 -35.49
7.50591252 0.997430 -73.65 0.064903 -146.1 0.064903 -146.1 0.997047 -37.49
7.50706261 0.980831 -78.37 0.176647 -153.9 0.176647 -153.9 0.977926 -46.31
7.50818634 0.965763 -61.02 0.235161 54.618 0.235161 54.618 0.960523 -13.85
7.50928433 0.996670 -67.83 0.073852 43.361 0.073852 43.361 0.996173 -26.70
7.51035716 0.998815 -69.10 0.044011 41.306 0.044011 41.306 0.998640 -29.04
7.51140541 0.999389 -69.63 0.031531 40.444 0.031531 40.444 0.999301 -30.01
7.51242963 0.999624 -69.93 0.024681 39.968 0.024681 39.968 0.999571 -30.55
7.51343039 0.999743 -70.12 0.020355 39.665 0.020355 39.665 0.999707 -30.89
7.51440822 0.999811 -70.26 0.017375 39.454 0.017375 39.454 0.999786 -31.13
7.51536364 0.999854 -70.36 0.015199 39.298 0.015199 39.298 0.999835 -31.30
7.51629717 0.999883 -70.44 0.013539 39.178 0.013539 39.178 0.999869 -31.43
7.51720931 0.999904 -70.50 0.012233 39.082 0.012233 39.082 0.999892 -31.54
7.51810055 0.999919 -70.56 0.011178 39.004 0.011178 39.004 0.999910 -31.63
7.51897136 0.999930 -70.60 0.010309 38.938 0.010309 38.938 0.999923 -31.70
7.51982222 0.999939 -70.64 0.009580 38.882 0.009580 38.882 0.999933 -31.76
7.52065359 0.999946 -70.67 0.008961 38.834 0.008961 38.834 0.999941 -31.81
7.52146591 0.999952 -70.70 0.008427 38.792 0.008427 38.792 0.999948 -31.86
7.52225961 0.999956 -70.73 0.007964 38.754 0.007964 38.754 0.999953 -31.90
7.52303512 0.999960 -70.76 0.007558 38.721 0.007558 38.721 0.999957 -31.93
7.52379287 0.999963 -70.78 0.007198 38.691 0.007198 38.691 0.999961 -31.96
7.52453325 0.999966 -70.80 0.006879 38.664 0.006879 38.664 0.999964 -31.99
7.52525667 0.999968 -70.82 0.006592 38.639 0.006592 38.639 0.999967 -32.02
7.52596351 0.999970 -70.84 0.006334 38.616 0.006334 38.616 0.999969 -32.04
7.52665416 0.999972 -70.85 0.006101 38.596 0.006101 38.596 0.999971 -32.06
7.52732898 0.999974 -70.87 0.005889 38.576 0.005889 38.576 0.999973 -32.08
7.52798834 0.999975 -70.88 0.005695 38.558 0.005695 38.558 0.999975 -32.10
7.52863259 0.999976 -70.90 0.005518 38.542 0.005518 38.542 0.999976 -32.12
7.52926207 0.999977 -70.91 0.005354 38.526 0.005354 38.526 0.999977 -32.13
7.52987714 0.999978 -70.92 0.005204 38.511 0.005204 38.511 0.999978 -32.15
7.53047811 0.999979 -70.93 0.005065 38.498 0.005065 38.498 0.999979 -32.16
7.53106531 0.999980 -70.94 0.004936 38.485 0.004936 38.485 0.999980 -32.17
7.53163905 0.999981 -70.96 0.004816 38.472 0.004816 38.472 0.999981 -32.18
7.53219965 0.999981 -70.97 0.004704 38.461 0.004704 38.461 0.999982 -32.19
7.53274740 0.999982 -70.97 0.004599 38.450 0.004599 38.450 0.999982 -32.21
7.53328260 0.999983 -70.98 0.004502 38.439 0.004502 38.439 0.999983 -32.22
7.53380554 0.999983 -70.99 0.004410 38.429 0.004410 38.429 0.999984 -32.23
7.53431649 0.999983 -71.00 0.004324 38.420 0.004324 38.420 0.999984 -32.23
7.53481574 0.999984 -71.01 0.004243 38.411 0.004243 38.411 0.999985 -32.24
7.53530355 0.999984 -71.02 0.004167 38.402 0.004167 38.402 0.999985 -32.25
7.53578018 0.999985 -71.03 0.004095 38.394 0.004095 38.394 0.999986 -32.26
7.53624589 0.999985 -71.03 0.004027 38.386 0.004027 38.386 0.999986 -32.27
7.53670092 0.999985 -71.04 0.003963 38.378 0.003963 38.378 0.999986 -32.27
7.53714553 0.999986 -71.05 0.003902 38.371 0.003902 38.371 0.999987 -32.28
7.53757996 0.999986 -71.05 0.003844 38.364 0.003844 38.364 0.999987 -32.29
7.53800443 0.999986 -71.06 0.003789 38.357 0.003789 38.357 0.999987 -32.29
7.53841917 0.999986 -71.07 0.003737 38.350 0.003737 38.350 0.999988 -32.30
7.53882441 0.999987 -71.07 0.003688 38.344 0.003688 38.344 0.999988 -32.30
7.53922036 0.999987 -71.08 0.003640 38.338 0.003640 38.338 0.999988 -32.31
7.53960724 0.999987 -71.08 0.003595 38.332 0.003595 38.332 0.999988 -32.32
7.53998526 0.999987 -71.09 0.003552 38.327 0.003552 38.327 0.999988 -32.32
7.54035461 0.999987 -71.09 0.003511 38.321 0.003511 38.321 0.999989 -32.33
7.54071551 0.999988 -71.10 0.003472 38.316 0.003472 38.316 0.999989 -32.33
7.54106813 0.999988 -71.10 0.003435 38.311 0.003435 38.311 0.999989 -32.33
7.54141267 0.999988 -71.11 0.003399 38.306 0.003399 38.306 0.999989 -32.34
7.54174932 0.999988 -71.11 0.003365 38.301 0.003365 38.301 0.999989 -32.34
7.54207825 0.999988 -71.12 0.003332 38.297 0.003332 38.297 0.999990 -32.35
7.54239964 0.999988 -71.12 0.003300 38.292 0.003300 38.292 0.999990 -32.35
7.54271368 0.999988 -71.13 0.003270 38.288 0.003270 38.288 0.999990 -32.35
7.54302051 0.999988 -71.13 0.003241 38.284 0.003241 38.284 0.999990 -32.36
7.54332032 0.999989 -71.13 0.003213 38.280 0.003213 38.280 0.999990 -32.36
7.54361325 0.999989 -71.14 0.003186 38.276 0.003186 38.276 0.999990 -32.37
7.54389948 0.999989 -71.14 0.003161 38.272 0.003161 38.272 0.999990 -32.37
7.54417914 0.999989 -71.15 0.003136 38.268 0.003136 38.268 0.999990 -32.37
7.54445240 0.999989 -71.15 0.003112 38.265 0.003112 38.265 0.999991 -32.37
7.54471939 0.999989 -71.15 0.003089 38.261 0.003089 38.261 0.999991 -32.38
7.54498027 0.999989 -71.16 0.003067 38.258 0.003067 38.258 0.999991 -32.38
7.54523517 0.999989 -71.16 0.003046 38.255 0.003046 38.255 0.999991 -32.38
7.54548423 0.999989 -71.16 0.003025 38.252 0.003025 38.252 0.999991 -32.39
7.54572758 0.999989 -71.17 0.003005 38.249 0.003005 38.249 0.999991 -32.39
7.54596536 0.999989 -71.17 0.002986 38.246 0.002986 38.246 0.999991 -32.39
7.54619768 0.999989 -71.17 0.002968 38.243 0.002968 38.243 0.999991 -32.39
7.54642469 0.999990 -71.18 0.002950 38.240 0.002950 38.240 0.999991 -32.40
7.54664649 0.999990 -71.18 0.002933 38.237 0.002933 38.237 0.999991 -32.40
7.54686321 0.999990 -71.18 0.002916 38.234 0.002916 38.234 0.999991 -32.40
7.54707497 0.999990 -71.18 0.002900 38.232 0.002900 38.232 0.999991 -32.40
7.54728187 0.999990 -71.19 0.002884 38.229 0.002884 38.229 0.999991 -32.41
7.54748403 0.999990 -71.19 0.002869 38.227 0.002869 38.227 0.999992 -32.41
7.54768156 0.999990 -71.19 0.002855 38.224 0.002855 38.224 0.999992 -32.41
7.54787456 0.999990 -71.19 0.002841 38.222 0.002841 38.222 0.999992 -32.41
7.54806314 0.999990 -71.20 0.002827 38.220 0.002827 38.220 0.999992 -32.41
7.54824740 0.999990 -71.20 0.002814 38.218 0.002814 38.218 0.999992 -32.42
7.54842744 0.999990 -71.20 0.002801 38.215 0.002801 38.215 0.999992 -32.42
7.54860335 0.999990 -71.20 0.002789 38.213 0.002789 38.213 0.999992 -32.42
7.54877523 0.999990 -71.21 0.002777 38.211 0.002777 38.211 0.999992 -32.42
7.54894318 0.999990 -71.21 0.002765 38.209 0.002765 38.209 0.999992 -32.42
7.54910727 0.999990 -71.21 0.002754 38.207 0.002754 38.207 0.999992 -32.42
7.54926760 0.999990 -71.21 0.002743 38.206 0.002743 38.206 0.999992 -32.43
7.54942426 0.999990 -71.21 0.002733 38.204 0.002733 38.204 0.999992 -32.43
7.54957734 0.999990 -71.22 0.002722 38.202 0.002722 38.202 0.999992 -32.43
7.54972690 0.999990 -71.22 0.002712 38.200 0.002712 38.200 0.999992 -32.43
7.54987304 0.999990 -71.22 0.002703 38.198 0.002703 38.198 0.999992 -32.43
7.55000000 0.999990 -71.22 0.002695 38.197 0.002695 38.197 0.999992 -32.43
7.55001582 0.999990 -71.22 0.002693 38.197 0.002693 38.197 0.999992 -32.43
7.55015534 0.999990 -71.22 0.002684 38.195 0.002684 38.195 0.999992 -32.43
7.55029166 0.999990 -71.22 0.002676 38.194 0.002676 38.194 0.999992 -32.44
7.55042485 0.999991 -71.23 0.002667 38.192 0.002667 38.192 0.999992 -32.44
7.55055500 0.999991 -71.23 0.002659 38.191 0.002659 38.191 0.999992 -32.44
7.55068216 0.999991 -71.23 0.002651 38.189 0.002651 38.189 0.999992 -32.44
7.55080641 0.999991 -71.23 0.002643 38.188 0.002643 38.188 0.999992 -32.44
7.55092781 0.999991 -71.23 0.002635 38.186 0.002635 38.186 0.999992 -32.44
7.55104643 0.999991 -71.23 0.002628 38.185 0.002628 38.185 0.999992 -32.44
7.55116233 0.999991 -71.24 0.002621 38.184 0.002621 38.184 0.999993 -32.44
7.55127557 0.999991 -71.24 0.002614 38.182 0.002614 38.182 0.999993 -32.45
7.55138622 0.999991 -71.24 0.002607 38.181 0.002607 38.181 0.999993 -32.45
7.55149434 0.999991 -71.24 0.002600 38.180 0.002600 38.180 0.999993 -32.45
7.55159998 0.999991 -71.24 0.002594 38.179 0.002594 38.179 0.999993 -32.45
7.55170319 0.999991 -71.24 0.002587 38.178 0.002587 38.178 0.999993 -32.45
7.55180405 0.999991 -71.24 0.002581 38.176 0.002581 38.176 0.999993 -32.45
7.55190259 0.999991 -71.24 0.002575 38.175 0.002575 38.175 0.999993 -32.45
7.55199887 0.999991 -71.25 0.002570 38.174 0.002570 38.174 0.999993 -32.45
7.55209295 0.999991 -71.25 0.002564 38.173 0.002564 38.173 0.999993 -32.45
7.55218487 0.999991 -71.25 0.002559 38.172 0.002559 38.172 0.999993 -32.45
7.55227468 0.999991 -71.25 0.002553 38.171 0.002553 38.171 0.999993 -32.45
7.55236244 0.999991 -71.25 0.002548 38.170 0.002548 38.170 0.999993 -32.46
7.55244819 0.999991 -71.25 0.002543 38.169 0.002543 38.169 0.999993 -32.46
7.55253197 0.999991 -71.25 0.002538 38.168 0.002538 38.168 0.999993 -32.46
7.55261383 0.999991 -71.25 0.002534 38.167 0.002534 38.167 0.999993 -32.46
7.55269382 0.999991 -71.25 0.002529 38.167 0.002529 38.167 0.999993 -32.46
7.55277197 0.999991 -71.25 0.002524 38.166 0.002524 38.166 0.999993 -32.46
7.55284833 0.999991 -71.26 0.002520 38.165 0.002520 38.165 0.999993 -32.46
7.55292294 0.999991 -71.26 0.002516 38.164 0.002516 38.164 0.999993 -32.46
7.55299585 0.999991 -71.26 0.002512 38.163 0.002512 38.163 0.999993 -32.46
7.55306708 0.999991 -71.26 0.002507 38.162 0.002507 38.162 0.999993 -32.46
7.55313668 0.999991 -71.26 0.002504 38.162 0.002504 38.162 0.999993 -32.46
7.55320469 0.999991 -71.26 0.002500 38.161 0.002500 38.161 0.999993 -32.46
7.55327113 0.999991 -71.26 0.002496 38.160 0.002496 38.160 0.999993 -32.46
7.55333606 0.999991 -71.26 0.002492 38.160 0.002492 38.160 0.999993 -32.46
7.55339949 0.999991 -71.26 0.002489 38.159 0.002489 38.159 0.999993 -32.46
7.55346148 0.999991 -71.26 0.002485 38.158 0.002485 38.158 0.999993 -32.47
7.55352204 0.999991 -71.26 0.002482 38.157 0.002482 38.157 0.999993 -32.47
7.55358122 0.999991 -71.26 0.002479 38.157 0.002479 38.157 0.999993 -32.47
7.55363904 0.999991 -71.26 0.002475 38.156 0.002475 38.156 0.999993 -32.47
7.55369553 0.999991 -71.27 0.002472 38.156 0.002472 38.156 0.999993 -32.47
7.55375073 0.999991 -71.27 0.002469 38.155 0.002469 38.155 0.999993 -32.47
7.55380467 0.999991 -71.27 0.002466 38.154 0.002466 38.154 0.999993 -32.47
7.55385737 0.999991 -71.27 0.002463 38.154 0.002463 38.154 0.999993 -32.47
7.55390886 0.999991 -71.27 0.002460 38.153 0.002460 38.153 0.999993 -32.47
7.55395917 0.999991 -71.27 0.002458 38.153 0.002458 38.153 0.999993 -32.47
7.55400833 0.999991 -71.27 0.002455 38.152 0.002455 38.152 0.999993 -32.47
7.55405636 0.999991 -71.27 0.002452 38.152 0.002452 38.152 0.999993 -32.47
7.55410329 0.999991 -71.27 0.002450 38.151 0.002450 38.151 0.999993 -32.47
7.55414915 0.999991 -71.27 0.002447 38.151 0.002447 38.151 0.999993 -32.47
7.55419396 0.999991 -71.27 0.002445 38.150 0.002445 38.150 0.999993 -32.47
7.55423774 0.999991 -71.27 0.002443 38.150 0.002443 38.150 0.999993 -32.47
7.55428051 0.999991 -71.27 0.002440 38.149 0.002440 38.149 0.999993 -32.47
7.55432231 0.999991 -71.27 0.002438 38.149 0.002438 38.149 0.999993 -32.47
