! Sonnet Data File
! From: emgraph Version : 16.54
! From Project: BusResonator_17
! Data is De-embedded 
! Data File Written: 08/31/2017 18:33:07
!< HDATE 08/31/2017 16:58:22
!< MDATE 08/31/2017 17:03:00
!< PARAMS
!< BusLengthControl = 100.0
!< END PARAMS
# GHZ S MA R 50.00000
6.00000000 1.000000 -3.613 2.039e-5 75.309 2.039e-5 75.309 0.999998 -25.76
!< P1 F=6.0 Eeff=(6.44857038 -2.9736e-5) Z0=(51.7893065 1.19468e-4) R=0.05083541 C=0.00240605 
!< P2 F=6.0 Eeff=(6.44857038 -2.9736e-5) Z0=(51.7893065 1.19468e-4) R=0.05083541 C=0.00240605 
6.05000000 1.000000 -3.643 2.436e-5 75.173 2.436e-5 75.173 0.999998 -25.99
6.10000000 1.000000 -3.673 3.018e-5 75.034 3.018e-5 75.034 0.999998 -26.23
6.15000000 1.000000 -3.703 3.952e-5 74.888 3.952e-5 74.888 0.999997 -26.47
6.20000000 1.000000 -3.733 5.695e-5 74.727 5.695e-5 74.727 0.999996 -26.73
6.25000000 1.000000 -3.764 1.012e-4 74.513 1.012e-4 74.513 0.999992 -27.06
6.30000000 1.000000 -3.794 4.392e-4 73.733 4.392e-4 73.733 0.999893 -28.08
6.35000000 1.000000 -3.823 1.895e-4 -105.2 1.895e-4 -105.2 0.999980 -26.80
6.40000000 1.000000 -3.854 7.824e-5 -105.5 7.824e-5 -105.5 0.999995 -27.29
6.45000000 1.000000 -3.884 4.939e-5 -105.7 4.939e-5 -105.7 0.999997 -27.58
6.50000000 1.000000 -3.914 3.612e-5 -105.9 3.612e-5 -105.9 0.999997 -27.83
6.55000000 1.000000 -3.944 2.848e-5 -106.0 2.848e-5 -106.0 0.999998 -28.07
!< P1 F=6.55 Eeff=(6.44828429 -2.9733e-5) Z0=(51.7879686 1.19472e-4) R=0.04657637 C=0.00240605 
!< P2 F=6.55 Eeff=(6.44828429 -2.9733e-5) Z0=(51.7879686 1.19472e-4) R=0.04657637 C=0.00240605 
6.60000000 1.000000 -3.974 2.352e-5 -106.1 2.352e-5 -106.1 0.999998 -28.31
6.65000000 1.000000 -4.004 2.002e-5 -106.3 2.002e-5 -106.3 0.999998 -28.54
6.70000000 1.000000 -4.034 1.742e-5 -106.4 1.742e-5 -106.4 0.999998 -28.76
6.75000000 1.000000 -4.065 1.541e-5 -106.5 1.541e-5 -106.5 0.999998 -28.99
6.80000000 1.000000 -4.095 1.381e-5 -106.7 1.381e-5 -106.7 0.999998 -29.22
6.85000000 1.000000 -4.125 1.250e-5 -106.8 1.250e-5 -106.8 0.999998 -29.44
6.90000000 1.000000 -4.155 1.140e-5 -106.9 1.140e-5 -106.9 0.999998 -29.67
6.95000000 1.000000 -4.185 1.046e-5 -107.1 1.046e-5 -107.1 0.999998 -29.90
7.00000000 1.000000 -4.215 9.655e-6 -107.2 9.655e-6 -107.2 0.999998 -30.12
7.05000000 1.000000 -4.245 8.949e-6 -107.3 8.949e-6 -107.3 0.999997 -30.35
7.10000000 1.000000 -4.275 8.324e-6 -107.5 8.324e-6 -107.5 0.999997 -30.58
7.15000000 1.000000 -4.305 7.765e-6 -107.6 7.765e-6 -107.6 0.999997 -30.80
7.20000000 1.000000 -4.336 7.259e-6 -107.7 7.259e-6 -107.7 0.999997 -31.03
7.25000000 1.000000 -4.366 6.798e-6 -107.9 6.798e-6 -107.9 0.999997 -31.26
7.30000000 1.000000 -4.396 6.374e-6 -108.0 6.374e-6 -108.0 0.999997 -31.49
7.35000000 1.000000 -4.426 5.981e-6 -108.1 5.981e-6 -108.1 0.999997 -31.71
7.40000000 1.000000 -4.456 5.613e-6 -108.3 5.613e-6 -108.3 0.999997 -31.94
7.45000000 1.000000 -4.486 5.268e-6 -108.4 5.268e-6 -108.4 0.999997 -32.17
7.50000000 1.000000 -4.516 4.940e-6 -108.6 4.940e-6 -108.6 0.999997 -32.40
7.55000000 1.000000 -4.546 4.628e-6 -108.7 4.628e-6 -108.7 0.999997 -32.63
7.60000000 1.000000 -4.576 4.328e-6 -108.8 4.328e-6 -108.8 0.999997 -32.86
7.65000000 1.000000 -4.607 4.039e-6 -109.0 4.039e-6 -109.0 0.999997 -33.09
7.70000000 1.000000 -4.637 3.757e-6 -109.1 3.757e-6 -109.1 0.999997 -33.32
7.75000000 1.000000 -4.667 3.482e-6 -109.3 3.482e-6 -109.3 0.999997 -33.56
7.80000000 1.000000 -4.697 3.211e-6 -109.4 3.211e-6 -109.4 0.999997 -33.79
7.85000000 1.000000 -4.727 2.943e-6 -109.6 2.943e-6 -109.6 0.999997 -34.02
7.90000000 1.000000 -4.757 2.677e-6 -109.7 2.677e-6 -109.7 0.999997 -34.26
7.95000000 1.000000 -4.787 2.411e-6 -109.9 2.411e-6 -109.9 0.999997 -34.49
8.00000000 1.000000 -4.817 2.143e-6 -110.1 2.143e-6 -110.1 0.999997 -34.73
8.05000000 1.000000 -4.847 1.873e-6 -110.3 1.873e-6 -110.3 0.999997 -34.96
8.10000000 1.000000 -4.878 1.600e-6 -110.5 1.600e-6 -110.5 0.999997 -35.20
8.15000000 1.000000 -4.908 1.321e-6 -110.7 1.321e-6 -110.7 0.999997 -35.44
8.20000000 1.000000 -4.938 1.035e-6 -111.0 1.035e-6 -111.0 0.999997 -35.68
8.25000000 1.000000 -4.968 7.419e-7 -111.4 7.419e-7 -111.4 0.999997 -35.92
8.30000000 1.000000 -4.998 4.394e-7 -112.2 4.394e-7 -112.2 0.999997 -36.17
8.35000000 1.000000 -5.028 1.265e-7 -116.3 1.265e-7 -116.3 0.999997 -36.41
8.40000000 1.000000 -5.058 2.002e-7 72.706 2.002e-7 72.706 0.999997 -36.65
8.45000000 1.000000 -5.088 5.395e-7 70.333 5.395e-7 70.333 0.999997 -36.90
8.50000000 1.000000 -5.118 8.949e-7 69.670 8.949e-7 69.670 0.999997 -37.15
8.55000000 1.000000 -5.149 1.268e-6 69.294 1.268e-6 69.294 0.999997 -37.40
8.60000000 1.000000 -5.179 1.661e-6 69.019 1.661e-6 69.019 0.999997 -37.65
8.65000000 1.000000 -5.209 2.076e-6 68.789 2.076e-6 68.789 0.999998 -37.91
8.70000000 1.000000 -5.239 2.516e-6 68.584 2.516e-6 68.584 0.999998 -38.16
8.75000000 1.000000 -5.269 2.983e-6 68.394 2.983e-6 68.394 0.999998 -38.42
8.80000000 1.000000 -5.299 3.481e-6 68.213 3.481e-6 68.213 0.999998 -38.68
8.85000000 1.000000 -5.329 4.014e-6 68.037 4.014e-6 68.037 0.999998 -38.94
8.90000000 1.000000 -5.359 4.584e-6 67.865 4.584e-6 67.865 0.999998 -39.21
8.95000000 1.000000 -5.389 5.197e-6 67.696 5.197e-6 67.696 0.999998 -39.48
9.00000000 1.000000 -5.420 5.858e-6 67.527 5.858e-6 67.527 0.999998 -39.76
9.05000000 1.000000 -5.450 6.573e-6 67.359 6.573e-6 67.359 0.999998 -40.03
9.10000000 1.000000 -5.480 7.347e-6 67.190 7.347e-6 67.190 0.999999 -40.32
9.15000000 1.000000 -5.510 8.189e-6 67.021 8.189e-6 67.021 0.999999 -40.60
9.20000000 1.000000 -5.540 9.108e-6 66.850 9.108e-6 66.850 0.999999 -40.89
9.25000000 1.000000 -5.570 1.011e-5 66.678 1.011e-5 66.678 0.999999 -41.19
9.30000000 1.000000 -5.600 1.122e-5 66.503 1.122e-5 66.503 0.999999 -41.50
9.35000000 1.000000 -5.630 1.243e-5 66.325 1.243e-5 66.325 0.999999 -41.81
9.40000000 1.000000 -5.661 1.378e-5 66.143 1.378e-5 66.143 1.000000 -42.13
9.45000000 1.000000 -5.691 1.527e-5 65.957 1.527e-5 65.957 1.000000 -42.47
9.50000000 1.000000 -5.721 1.694e-5 65.766 1.694e-5 65.766 1.000000 -42.81
9.55000000 1.000000 -5.751 1.881e-5 65.569 1.881e-5 65.569 1.000000 -43.17
9.60000000 1.000000 -5.781 2.092e-5 65.364 2.092e-5 65.364 1.000001 -43.54
9.65000000 1.000000 -5.811 2.331e-5 65.151 2.331e-5 65.151 1.000001 -43.93
9.70000000 1.000000 -5.841 2.603e-5 64.927 2.603e-5 64.927 1.000001 -44.34
9.75000000 1.000000 -5.871 2.916e-5 64.691 2.916e-5 64.691 1.000002 -44.78
9.80000000 1.000000 -5.901 3.279e-5 64.440 3.279e-5 64.440 1.000002 -45.25
9.85000000 1.000000 -5.932 3.703e-5 64.170 3.703e-5 64.170 1.000003 -45.75
9.90000000 1.000000 -5.962 4.204e-5 63.876 4.204e-5 63.876 1.000003 -46.31
9.95000000 1.000000 -5.992 4.803e-5 63.552 4.803e-5 63.552 1.000004 -46.92
10.0000000 1.000000 -6.022 5.531e-5 63.189 5.531e-5 63.189 1.000005 -47.62
10.0500000 1.000000 -6.052 6.430e-5 62.774 6.430e-5 62.774 1.000006 -48.41
10.1000000 1.000000 -6.082 7.565e-5 62.287 7.565e-5 62.287 1.000007 -49.36
10.1500000 1.000000 -6.112 9.036e-5 61.698 9.036e-5 61.698 1.000008 -50.50
10.2000000 1.000000 -6.142 1.101e-4 60.956 1.101e-4 60.956 1.000010 -51.95
10.2500000 0.999999 -6.172 1.379e-4 59.971 1.379e-4 59.971 1.000013 -53.89
10.3000000 0.999999 -6.203 1.797e-4 58.563 1.797e-4 58.563 1.000016 -56.68
10.3500000 0.999999 -6.233 2.488e-4 56.323 2.488e-4 56.323 1.000022 -61.13
10.4000000 0.999999 -6.263 3.837e-4 52.064 3.837e-4 52.064 1.000033 -69.61
10.4500000 0.999999 -6.293 7.435e-4 40.578 7.435e-4 40.578 1.000055 -92.55
10.5000000 0.999998 -6.323 0.001904 -22.96 0.001904 -22.96 0.999957 140.41
10.5500000 0.999999 -6.353 8.403e-4 -90.67 8.403e-4 -90.67 0.999921 5.0022
10.6000000 0.999999 -6.383 4.674e-4 -102.8 4.674e-4 -102.8 0.999956 -19.18
10.6500000 0.999999 -6.413 3.295e-4 -107.2 3.295e-4 -107.2 0.999970 -27.94
10.7000000 0.999999 -6.444 2.594e-4 -109.5 2.594e-4 -109.5 0.999977 -32.49
10.7500000 0.999999 -6.474 2.175e-4 -110.9 2.175e-4 -110.9 0.999981 -35.33
10.8000000 0.999999 -6.504 1.898e-4 -111.9 1.898e-4 -111.9 0.999984 -37.30
10.8500000 0.999999 -6.534 1.704e-4 -112.6 1.704e-4 -112.6 0.999986 -38.77
10.9000000 0.999999 -6.564 1.562e-4 -113.2 1.562e-4 -113.2 0.999987 -39.93
10.9500000 0.999999 -6.594 1.455e-4 -113.7 1.455e-4 -113.7 0.999988 -40.89
11.0000000 0.999999 -6.624 1.373e-4 -114.2 1.373e-4 -114.2 0.999989 -41.71
11.0500000 0.999999 -6.654 1.309e-4 -114.5 1.309e-4 -114.5 0.999990 -42.41
11.1000000 0.999999 -6.684 1.260e-4 -114.9 1.260e-4 -114.9 0.999991 -43.05
11.1500000 0.999999 -6.715 1.221e-4 -115.2 1.221e-4 -115.2 0.999991 -43.62
11.2000000 0.999999 -6.745 1.192e-4 -115.4 1.192e-4 -115.4 0.999992 -44.14
11.2500000 0.999999 -6.775 1.170e-4 -115.7 1.170e-4 -115.7 0.999992 -44.63
11.3000000 0.999999 -6.805 1.154e-4 -115.9 1.154e-4 -115.9 0.999993 -45.08
11.3500000 0.999999 -6.835 1.144e-4 -116.2 1.144e-4 -116.2 0.999993 -45.52
11.4000000 0.999999 -6.865 1.139e-4 -116.4 1.139e-4 -116.4 0.999993 -45.93
11.4500000 0.999999 -6.895 1.139e-4 -116.6 1.139e-4 -116.6 0.999993 -46.33
11.5000000 0.999999 -6.925 1.143e-4 -116.8 1.143e-4 -116.8 0.999994 -46.71
11.5500000 0.999999 -6.956 1.152e-4 -117.0 1.152e-4 -117.0 0.999994 -47.08
11.6000000 0.999999 -6.986 1.165e-4 -117.2 1.165e-4 -117.2 0.999994 -47.45
11.6500000 0.999999 -7.016 1.182e-4 -117.4 1.182e-4 -117.4 0.999994 -47.81
11.7000000 0.999999 -7.046 1.203e-4 -117.6 1.203e-4 -117.6 0.999994 -48.16
11.7500000 0.999999 -7.076 1.229e-4 -117.8 1.229e-4 -117.8 0.999994 -48.50
11.8000000 0.999999 -7.106 1.259e-4 -118.0 1.259e-4 -118.0 0.999994 -48.85
11.8500000 0.999999 -7.136 1.295e-4 -118.2 1.295e-4 -118.2 0.999994 -49.19
11.9000000 0.999999 -7.166 1.337e-4 -118.4 1.337e-4 -118.4 0.999995 -49.54
11.9500000 0.999999 -7.197 1.385e-4 -118.5 1.385e-4 -118.5 0.999995 -49.88
11.9663176 0.999999 -7.206 1.402e-4 -118.6 1.402e-4 -118.6 0.999995 -50.00
11.9822613 0.999999 -7.216 1.420e-4 -118.7 1.420e-4 -118.7 0.999995 -50.11
11.9978396 0.999999 -7.225 1.438e-4 -118.7 1.438e-4 -118.7 0.999995 -50.21
12.0000000 0.999999 -7.227 1.440e-4 -118.7 1.440e-4 -118.7 0.999995 -50.23
12.0130610 0.999999 -7.234 1.456e-4 -118.8 1.456e-4 -118.8 0.999995 -50.32
12.0279336 0.999999 -7.243 1.475e-4 -118.8 1.475e-4 -118.8 0.999995 -50.43
12.0424655 0.999999 -7.252 1.494e-4 -118.9 1.494e-4 -118.9 0.999995 -50.53
12.0500000 0.999999 -7.257 1.504e-4 -118.9 1.504e-4 -118.9 0.999995 -50.58
12.0566643 0.999999 -7.261 1.513e-4 -118.9 1.513e-4 -118.9 0.999995 -50.63
12.0705378 0.999999 -7.269 1.533e-4 -119.0 1.533e-4 -119.0 0.999995 -50.73
12.0840934 0.999999 -7.277 1.553e-4 -119.1 1.553e-4 -119.1 0.999995 -50.83
12.0973384 0.999999 -7.285 1.574e-4 -119.1 1.574e-4 -119.1 0.999994 -50.92
12.1000000 0.999999 -7.287 1.578e-4 -119.1 1.578e-4 -119.1 0.999994 -50.94
12.1102799 0.999999 -7.293 1.594e-4 -119.2 1.594e-4 -119.2 0.999994 -51.01
12.1229249 0.999999 -7.301 1.615e-4 -119.2 1.615e-4 -119.2 0.999994 -51.11
12.1352801 0.999999 -7.308 1.636e-4 -119.3 1.636e-4 -119.3 0.999994 -51.20
12.1473522 0.999999 -7.315 1.658e-4 -119.3 1.658e-4 -119.3 0.999994 -51.29
12.1500000 0.999999 -7.317 1.663e-4 -119.3 1.663e-4 -119.3 0.999994 -51.31
12.1591477 0.999999 -7.323 1.680e-4 -119.4 1.680e-4 -119.4 0.999994 -51.38
12.1706729 0.999999 -7.329 1.702e-4 -119.4 1.702e-4 -119.4 0.999994 -51.46
12.1819341 0.999999 -7.336 1.724e-4 -119.4 1.724e-4 -119.4 0.999994 -51.55
12.1929372 0.999999 -7.343 1.747e-4 -119.5 1.747e-4 -119.5 0.999994 -51.63
12.2000000 0.999999 -7.347 1.762e-4 -119.5 1.762e-4 -119.5 0.999994 -51.68
12.2036881 0.999999 -7.349 1.770e-4 -119.5 1.770e-4 -119.5 0.999994 -51.71
12.2141928 0.999999 -7.356 1.793e-4 -119.6 1.793e-4 -119.6 0.999994 -51.79
12.2244567 0.999999 -7.362 1.816e-4 -119.6 1.816e-4 -119.6 0.999994 -51.87
12.2344854 0.999999 -7.368 1.839e-4 -119.7 1.839e-4 -119.7 0.999994 -51.95
12.2442844 0.999999 -7.374 1.863e-4 -119.7 1.863e-4 -119.7 0.999994 -52.03
12.2500000 0.999999 -7.377 1.877e-4 -119.7 1.877e-4 -119.7 0.999994 -52.08
12.2538588 0.999999 -7.380 1.887e-4 -119.7 1.887e-4 -119.7 0.999994 -52.11
12.2632138 0.999999 -7.385 1.911e-4 -119.8 1.911e-4 -119.8 0.999994 -52.18
12.2723545 0.999999 -7.391 1.935e-4 -119.8 1.935e-4 -119.8 0.999994 -52.26
12.2812857 0.999999 -7.396 1.960e-4 -119.9 1.960e-4 -119.9 0.999994 -52.33
12.2900123 0.999999 -7.401 1.985e-4 -119.9 1.985e-4 -119.9 0.999994 -52.41
12.2985389 0.999999 -7.406 2.009e-4 -119.9 2.009e-4 -119.9 0.999994 -52.48
12.3000000 0.999999 -7.407 2.014e-4 -120.0 2.014e-4 -120.0 0.999994 -52.49
12.3068702 0.999999 -7.412 2.034e-4 -120.0 2.034e-4 -120.0 0.999994 -52.55
12.3150105 0.999999 -7.416 2.059e-4 -120.0 2.059e-4 -120.0 0.999994 -52.62
12.3229643 0.999999 -7.421 2.085e-4 -120.1 2.085e-4 -120.1 0.999994 -52.69
12.3307359 0.999999 -7.426 2.110e-4 -120.1 2.110e-4 -120.1 0.999994 -52.75
12.3383294 0.999999 -7.430 2.136e-4 -120.1 2.136e-4 -120.1 0.999994 -52.82
12.3457488 0.999999 -7.435 2.161e-4 -120.2 2.161e-4 -120.2 0.999994 -52.89
12.3500000 0.999999 -7.437 2.176e-4 -120.2 2.176e-4 -120.2 0.999994 -52.93
12.3529983 0.999999 -7.439 2.187e-4 -120.2 2.187e-4 -120.2 0.999994 -52.95
12.3600817 0.999999 -7.444 2.213e-4 -120.2 2.213e-4 -120.2 0.999994 -53.02
12.3670027 0.999999 -7.448 2.239e-4 -120.3 2.239e-4 -120.3 0.999994 -53.08
12.3737652 0.999999 -7.452 2.265e-4 -120.3 2.265e-4 -120.3 0.999993 -53.14
12.3803727 0.999999 -7.456 2.291e-4 -120.3 2.291e-4 -120.3 0.999993 -53.21
12.3868289 0.999999 -7.460 2.317e-4 -120.4 2.317e-4 -120.4 0.999993 -53.27
12.3931370 0.999999 -7.463 2.343e-4 -120.4 2.343e-4 -120.4 0.999993 -53.33
12.3993007 0.999999 -7.467 2.369e-4 -120.4 2.369e-4 -120.4 0.999993 -53.39
12.4000000 0.999999 -7.468 2.372e-4 -120.4 2.372e-4 -120.4 0.999993 -53.40
12.4053231 0.999999 -7.471 2.396e-4 -120.5 2.396e-4 -120.5 0.999993 -53.45
12.4112075 0.999999 -7.474 2.422e-4 -120.5 2.422e-4 -120.5 0.999993 -53.51
12.4169571 0.999999 -7.478 2.448e-4 -120.5 2.448e-4 -120.5 0.999993 -53.57
12.4225749 0.999999 -7.481 2.475e-4 -120.6 2.475e-4 -120.6 0.999993 -53.62
12.4280640 0.999999 -7.485 2.501e-4 -120.6 2.501e-4 -120.6 0.999993 -53.68
12.4334273 0.999999 -7.488 2.527e-4 -120.6 2.527e-4 -120.6 0.999993 -53.73
12.4386678 0.999999 -7.491 2.554e-4 -120.6 2.554e-4 -120.6 0.999993 -53.79
12.4437881 0.999999 -7.494 2.580e-4 -120.7 2.580e-4 -120.7 0.999993 -53.84
12.4487911 0.999999 -7.497 2.607e-4 -120.7 2.607e-4 -120.7 0.999993 -53.90
12.4500000 0.999999 -7.498 2.613e-4 -120.7 2.613e-4 -120.7 0.999993 -53.91
12.4536795 0.999999 -7.500 2.633e-4 -120.7 2.633e-4 -120.7 0.999993 -53.95
12.4584559 0.999999 -7.503 2.659e-4 -120.8 2.659e-4 -120.8 0.999993 -54.00
12.4631229 0.999999 -7.506 2.685e-4 -120.8 2.685e-4 -120.8 0.999993 -54.06
12.4676828 0.999999 -7.508 2.712e-4 -120.8 2.712e-4 -120.8 0.999992 -54.11
12.4721384 0.999999 -7.511 2.738e-4 -120.8 2.738e-4 -120.8 0.999992 -54.16
12.4764918 0.999999 -7.514 2.764e-4 -120.9 2.764e-4 -120.9 0.999992 -54.21
12.4807454 0.999999 -7.516 2.790e-4 -120.9 2.790e-4 -120.9 0.999992 -54.26
12.4849016 0.999999 -7.519 2.816e-4 -120.9 2.816e-4 -120.9 0.999992 -54.31
12.4889626 0.999999 -7.521 2.841e-4 -120.9 2.841e-4 -120.9 0.999992 -54.35
12.4929305 0.999999 -7.524 2.867e-4 -121.0 2.867e-4 -121.0 0.999992 -54.40
12.4968075 0.999999 -7.526 2.893e-4 -121.0 2.893e-4 -121.0 0.999992 -54.45
12.5000000 0.999999 -7.528 2.914e-4 -121.0 2.914e-4 -121.0 0.999992 -54.49
12.5005957 0.999999 -7.528 2.918e-4 -121.0 2.918e-4 -121.0 0.999992 -54.50
12.5042970 0.999999 -7.530 2.944e-4 -121.0 2.944e-4 -121.0 0.999992 -54.54
12.5079136 0.999999 -7.533 2.969e-4 -121.1 2.969e-4 -121.1 0.999992 -54.59
12.5114472 0.999999 -7.535 2.994e-4 -121.1 2.994e-4 -121.1 0.999992 -54.63
12.5148999 0.999999 -7.537 3.019e-4 -121.1 3.019e-4 -121.1 0.999992 -54.68
12.5182735 0.999999 -7.539 3.044e-4 -121.1 3.044e-4 -121.1 0.999992 -54.72
12.5215698 0.999999 -7.541 3.069e-4 -121.2 3.069e-4 -121.2 0.999991 -54.76
12.5247906 0.999999 -7.543 3.093e-4 -121.2 3.093e-4 -121.2 0.999991 -54.80
12.5279375 0.999999 -7.545 3.118e-4 -121.2 3.118e-4 -121.2 0.999991 -54.85
12.5310124 0.999999 -7.547 3.142e-4 -121.2 3.142e-4 -121.2 0.999991 -54.89
12.5340168 0.999999 -7.548 3.166e-4 -121.2 3.166e-4 -121.2 0.999991 -54.93
12.5369523 0.999999 -7.550 3.190e-4 -121.3 3.190e-4 -121.3 0.999991 -54.97
12.5398206 0.999999 -7.552 3.213e-4 -121.3 3.213e-4 -121.3 0.999991 -55.01
12.5426232 0.999999 -7.554 3.237e-4 -121.3 3.237e-4 -121.3 0.999991 -55.05
12.5453615 0.999999 -7.555 3.260e-4 -121.3 3.260e-4 -121.3 0.999991 -55.09
12.5480371 0.999999 -7.557 3.284e-4 -121.3 3.284e-4 -121.3 0.999991 -55.13
12.5500000 0.999999 -7.558 3.301e-4 -121.4 3.301e-4 -121.4 0.999991 -55.15
!< P1 F=12.55 Eeff=(6.44354049 -2.9689e-5) Z0=(51.7613448 1.19584e-4) R=0.02430599 C=0.00240587 
!< P2 F=12.55 Eeff=(6.44354049 -2.9689e-5) Z0=(51.7613448 1.19584e-4) R=0.02430599 C=0.00240587 
12.5506514 0.999999 -7.558 3.307e-4 -121.4 3.307e-4 -121.4 0.999991 -55.16
12.5532058 0.999999 -7.560 3.329e-4 -121.4 3.329e-4 -121.4 0.999991 -55.20
12.5557016 0.999999 -7.561 3.352e-4 -121.4 3.352e-4 -121.4 0.999991 -55.24
12.5581403 0.999999 -7.563 3.374e-4 -121.4 3.374e-4 -121.4 0.999990 -55.27
12.5605231 0.999999 -7.564 3.396e-4 -121.4 3.396e-4 -121.4 0.999990 -55.31
12.5628513 0.999999 -7.566 3.418e-4 -121.5 3.418e-4 -121.5 0.999990 -55.34
12.5651261 0.999999 -7.567 3.440e-4 -121.5 3.440e-4 -121.5 0.999990 -55.38
12.5673488 0.999999 -7.568 3.462e-4 -121.5 3.462e-4 -121.5 0.999990 -55.41
12.5695206 0.999999 -7.570 3.483e-4 -121.5 3.483e-4 -121.5 0.999990 -55.45
12.5716426 0.999999 -7.571 3.504e-4 -121.5 3.504e-4 -121.5 0.999990 -55.48
12.5737160 0.999999 -7.572 3.525e-4 -121.5 3.525e-4 -121.5 0.999990 -55.51
12.5757419 0.999999 -7.574 3.546e-4 -121.6 3.546e-4 -121.6 0.999990 -55.54
12.5777214 0.999999 -7.575 3.566e-4 -121.6 3.566e-4 -121.6 0.999990 -55.58
12.5796555 0.999999 -7.576 3.586e-4 -121.6 3.586e-4 -121.6 0.999990 -55.61
12.5815453 0.999999 -7.577 3.606e-4 -121.6 3.606e-4 -121.6 0.999990 -55.64
12.5833918 0.999999 -7.578 3.626e-4 -121.6 3.626e-4 -121.6 0.999990 -55.67
12.5851960 0.999999 -7.579 3.645e-4 -121.6 3.645e-4 -121.6 0.999989 -55.70
12.5869588 0.999999 -7.580 3.665e-4 -121.7 3.665e-4 -121.7 0.999989 -55.73
12.5886813 0.999999 -7.581 3.684e-4 -121.7 3.684e-4 -121.7 0.999989 -55.76
12.5903642 0.999999 -7.582 3.702e-4 -121.7 3.702e-4 -121.7 0.999989 -55.78
12.5920087 0.999999 -7.583 3.721e-4 -121.7 3.721e-4 -121.7 0.999989 -55.81
12.5936154 0.999999 -7.584 3.739e-4 -121.7 3.739e-4 -121.7 0.999989 -55.84
12.5951853 0.999999 -7.585 3.757e-4 -121.7 3.757e-4 -121.7 0.999989 -55.87
12.5967193 0.999999 -7.586 3.775e-4 -121.7 3.775e-4 -121.7 0.999989 -55.89
12.5982181 0.999999 -7.587 3.793e-4 -121.8 3.793e-4 -121.8 0.999989 -55.92
12.5996825 0.999999 -7.588 3.810e-4 -121.8 3.810e-4 -121.8 0.999989 -55.94
12.6000000 0.999999 -7.588 3.814e-4 -121.8 3.814e-4 -121.8 0.999989 -55.95
12.6011134 0.999999 -7.589 3.827e-4 -121.8 3.827e-4 -121.8 0.999989 -55.97
12.6025115 0.999999 -7.590 3.844e-4 -121.8 3.844e-4 -121.8 0.999989 -56.00
12.6038776 0.999999 -7.590 3.861e-4 -121.8 3.861e-4 -121.8 0.999989 -56.02
12.6052124 0.999999 -7.591 3.877e-4 -121.8 3.877e-4 -121.8 0.999988 -56.04
12.6065166 0.999999 -7.592 3.893e-4 -121.8 3.893e-4 -121.8 0.999988 -56.07
12.6077909 0.999999 -7.593 3.909e-4 -121.8 3.909e-4 -121.8 0.999988 -56.09
12.6090360 0.999999 -7.594 3.925e-4 -121.9 3.925e-4 -121.9 0.999988 -56.11
12.6102525 0.999999 -7.594 3.940e-4 -121.9 3.940e-4 -121.9 0.999988 -56.14
12.6114412 0.999999 -7.595 3.956e-4 -121.9 3.956e-4 -121.9 0.999988 -56.16
12.6126027 0.999999 -7.596 3.971e-4 -121.9 3.971e-4 -121.9 0.999988 -56.18
12.6137375 0.999999 -7.596 3.985e-4 -121.9 3.985e-4 -121.9 0.999988 -56.20
12.6148464 0.999999 -7.597 4.000e-4 -121.9 4.000e-4 -121.9 0.999988 -56.22
12.6159298 0.999999 -7.598 4.014e-4 -121.9 4.014e-4 -121.9 0.999988 -56.24
