! Sonnet Data File
! From: emgraph Version : 16.54
! From Project: BusResonator_17
! Data is De-embedded 
! Data File Written: 08/31/2017 18:33:07
!< HDATE 08/31/2017 16:58:22
!< MDATE 08/31/2017 17:03:00
!< PARAMS
!< BusLengthControl = 1100.0
!< END PARAMS
# GHZ S MA R 50.00000
6.00000000 0.999997 -38.58 1.454e-4 -122.2 1.454e-4 -122.2 0.999998 -25.73
!< P1 F=6.0 Eeff=(6.44857038 -2.9736e-5) Z0=(51.7893065 1.19468e-4) R=0.05083541 C=0.00240605 
!< P2 F=6.0 Eeff=(6.44857038 -2.9736e-5) Z0=(51.7893065 1.19468e-4) R=0.05083541 C=0.00240605 
6.05000000 0.999997 -38.91 1.530e-4 -122.4 1.530e-4 -122.4 0.999998 -25.95
6.10000000 0.999997 -39.23 1.614e-4 -122.7 1.614e-4 -122.7 0.999998 -26.17
6.15000000 0.999997 -39.55 1.706e-4 -123.0 1.706e-4 -123.0 0.999998 -26.39
6.20000000 0.999997 -39.88 1.807e-4 -123.2 1.807e-4 -123.2 0.999998 -26.61
6.25000000 0.999997 -40.20 1.921e-4 -123.5 1.921e-4 -123.5 0.999998 -26.83
6.30000000 0.999997 -40.53 2.049e-4 -123.8 2.049e-4 -123.8 0.999998 -27.05
6.35000000 0.999997 -40.85 2.193e-4 -124.1 2.193e-4 -124.1 0.999998 -27.27
6.40000000 0.999997 -41.17 2.358e-4 -124.3 2.358e-4 -124.3 0.999998 -27.50
6.45000000 0.999997 -41.50 2.548e-4 -124.6 2.548e-4 -124.6 0.999998 -27.72
6.50000000 0.999997 -41.82 2.770e-4 -124.9 2.770e-4 -124.9 0.999998 -27.94
6.55000000 0.999997 -42.15 3.034e-4 -125.2 3.034e-4 -125.2 0.999998 -28.17
6.60000000 0.999997 -42.47 3.351e-4 -125.4 3.351e-4 -125.4 0.999998 -28.39
6.65000000 0.999997 -42.80 3.742e-4 -125.7 3.742e-4 -125.7 0.999998 -28.62
6.70000000 0.999997 -43.12 4.236e-4 -126.0 4.236e-4 -126.0 0.999998 -28.84
6.70924220 0.999997 -43.18 4.342e-4 -126.0 4.342e-4 -126.0 0.999998 -28.89
6.71827263 0.999997 -43.24 4.451e-4 -126.1 4.451e-4 -126.1 0.999998 -28.93
6.72709614 0.999997 -43.30 4.563e-4 -126.1 4.563e-4 -126.1 0.999998 -28.97
6.73571746 0.999997 -43.35 4.678e-4 -126.2 4.678e-4 -126.2 0.999998 -29.01
6.74414124 0.999997 -43.41 4.796e-4 -126.2 4.796e-4 -126.2 0.999998 -29.05
6.75000000 0.999997 -43.45 4.881e-4 -126.3 4.881e-4 -126.3 0.999998 -29.07
6.75237200 0.999997 -43.46 4.917e-4 -126.3 4.917e-4 -126.3 0.999998 -29.08
6.76041416 0.999997 -43.52 5.041e-4 -126.3 5.041e-4 -126.3 0.999998 -29.12
6.76827205 0.999996 -43.57 5.169e-4 -126.4 5.169e-4 -126.4 0.999998 -29.16
6.77594988 0.999996 -43.62 5.301e-4 -126.4 5.301e-4 -126.4 0.999997 -29.19
6.78345178 0.999996 -43.67 5.436e-4 -126.4 5.436e-4 -126.4 0.999997 -29.23
6.79078179 0.999996 -43.71 5.575e-4 -126.5 5.575e-4 -126.5 0.999997 -29.26
6.79794383 0.999996 -43.76 5.718e-4 -126.5 5.718e-4 -126.5 0.999997 -29.29
6.80000000 0.999996 -43.78 5.761e-4 -126.5 5.761e-4 -126.5 0.999997 -29.30
6.80494177 0.999996 -43.81 5.865e-4 -126.6 5.865e-4 -126.6 0.999997 -29.33
6.81177936 0.999996 -43.85 6.017e-4 -126.6 6.017e-4 -126.6 0.999997 -29.36
6.81846027 0.999996 -43.90 6.172e-4 -126.6 6.172e-4 -126.6 0.999997 -29.39
6.82498810 0.999996 -43.94 6.333e-4 -126.7 6.333e-4 -126.7 0.999997 -29.42
6.83136635 0.999996 -43.98 6.498e-4 -126.7 6.498e-4 -126.7 0.999997 -29.45
6.83759845 0.999996 -44.02 6.668e-4 -126.8 6.668e-4 -126.8 0.999997 -29.48
6.84368775 0.999996 -44.06 6.843e-4 -126.8 6.843e-4 -126.8 0.999997 -29.51
6.84963753 0.999996 -44.10 7.023e-4 -126.8 7.023e-4 -126.8 0.999997 -29.54
6.85000000 0.999996 -44.10 7.034e-4 -126.8 7.034e-4 -126.8 0.999997 -29.54
6.85545097 0.999996 -44.14 7.208e-4 -126.9 7.208e-4 -126.9 0.999997 -29.56
6.86113120 0.999996 -44.18 7.400e-4 -126.9 7.400e-4 -126.9 0.999997 -29.59
6.86668127 0.999996 -44.21 7.597e-4 -126.9 7.597e-4 -126.9 0.999997 -29.62
6.87210418 0.999996 -44.25 7.800e-4 -127.0 7.800e-4 -127.0 0.999997 -29.64
6.87740282 0.999996 -44.29 8.010e-4 -127.0 8.010e-4 -127.0 0.999997 -29.67
6.88258005 0.999996 -44.32 8.226e-4 -127.0 8.226e-4 -127.0 0.999997 -29.69
6.88763865 0.999996 -44.35 8.449e-4 -127.0 8.449e-4 -127.0 0.999997 -29.72
6.89258134 0.999996 -44.39 8.679e-4 -127.1 8.679e-4 -127.1 0.999997 -29.74
6.89741078 0.999996 -44.42 8.916e-4 -127.1 8.916e-4 -127.1 0.999997 -29.77
6.90000000 0.999996 -44.44 9.049e-4 -127.1 9.049e-4 -127.1 0.999997 -29.78
6.90212955 0.999996 -44.45 9.161e-4 -127.1 9.161e-4 -127.1 0.999997 -29.79
6.90674020 0.999996 -44.48 9.414e-4 -127.2 9.414e-4 -127.2 0.999997 -29.81
6.91124520 0.999996 -44.51 9.675e-4 -127.2 9.675e-4 -127.2 0.999997 -29.83
6.91564697 0.999996 -44.54 9.945e-4 -127.2 9.945e-4 -127.2 0.999997 -29.86
6.91994789 0.999996 -44.57 0.001022 -127.2 0.001022 -127.2 0.999997 -29.88
6.92415025 0.999996 -44.60 0.001051 -127.3 0.001051 -127.3 0.999997 -29.90
6.92825632 0.999996 -44.62 0.001081 -127.3 0.001081 -127.3 0.999997 -29.92
6.93226831 0.999996 -44.65 0.001112 -127.3 0.001112 -127.3 0.999997 -29.94
6.93618836 0.999996 -44.68 0.001144 -127.3 0.001144 -127.3 0.999997 -29.96
6.94001859 0.999996 -44.70 0.001177 -127.4 0.001177 -127.4 0.999997 -29.98
6.94376106 0.999996 -44.73 0.001211 -127.4 0.001211 -127.4 0.999997 -30.00
6.94741777 0.999996 -44.76 0.001247 -127.4 0.001247 -127.4 0.999997 -30.02
6.95000000 0.999996 -44.77 0.001273 -127.4 0.001273 -127.4 0.999997 -30.04
6.95099070 0.999996 -44.78 0.001283 -127.4 0.001283 -127.4 0.999997 -30.04
6.95448175 0.999996 -44.80 0.001321 -127.4 0.001321 -127.4 0.999996 -30.06
6.95789281 0.999996 -44.83 0.001361 -127.5 0.001361 -127.5 0.999996 -30.08
6.96122572 0.999995 -44.85 0.001402 -127.5 0.001402 -127.5 0.999996 -30.10
6.96448225 0.999995 -44.87 0.001444 -127.5 0.001444 -127.5 0.999996 -30.12
6.96766416 0.999995 -44.90 0.001488 -127.5 0.001488 -127.5 0.999996 -30.13
6.97077316 0.999995 -44.92 0.001534 -127.5 0.001534 -127.5 0.999996 -30.15
6.97381093 0.999995 -44.94 0.001582 -127.6 0.001582 -127.6 0.999996 -30.17
6.97677908 0.999995 -44.96 0.001631 -127.6 0.001631 -127.6 0.999996 -30.19
6.97967923 0.999995 -44.98 0.001683 -127.6 0.001683 -127.6 0.999996 -30.20
6.98251292 0.999995 -45.00 0.001737 -127.6 0.001737 -127.6 0.999996 -30.22
6.98528168 0.999995 -45.02 0.001793 -127.6 0.001793 -127.6 0.999995 -30.24
6.98798700 0.999995 -45.04 0.001851 -127.7 0.001851 -127.7 0.999995 -30.26
6.99063033 0.999994 -45.06 0.001912 -127.7 0.001912 -127.7 0.999995 -30.27
6.99321309 0.999994 -45.08 0.001975 -127.7 0.001975 -127.7 0.999995 -30.29
6.99573667 0.999994 -45.10 0.002041 -127.7 0.002041 -127.7 0.999995 -30.31
6.99820242 0.999994 -45.12 0.002110 -127.7 0.002110 -127.7 0.999995 -30.33
7.00000000 0.999994 -45.13 0.002164 -127.7 0.002164 -127.7 0.999994 -30.34
7.00061168 0.999994 -45.13 0.002182 -127.8 0.002182 -127.8 0.999994 -30.34
7.00296573 0.999994 -45.15 0.002258 -127.8 0.002258 -127.8 0.999994 -30.36
7.00526584 0.999993 -45.17 0.002337 -127.8 0.002337 -127.8 0.999994 -30.38
7.00751325 0.999993 -45.19 0.002420 -127.8 0.002420 -127.8 0.999994 -30.39
7.00970916 0.999993 -45.21 0.002507 -127.8 0.002507 -127.8 0.999993 -30.41
7.01185475 0.999993 -45.22 0.002599 -127.8 0.002599 -127.8 0.999993 -30.43
7.01395118 0.999992 -45.24 0.002695 -127.9 0.002695 -127.9 0.999993 -30.45
7.01599957 0.999992 -45.26 0.002796 -127.9 0.002796 -127.9 0.999992 -30.47
7.01800102 0.999992 -45.27 0.002902 -127.9 0.002902 -127.9 0.999992 -30.48
7.01995662 0.999991 -45.29 0.003014 -127.9 0.003014 -127.9 0.999992 -30.50
7.02186740 0.999991 -45.31 0.003132 -127.9 0.003132 -127.9 0.999991 -30.52
7.02373440 0.999990 -45.32 0.003257 -128.0 0.003257 -128.0 0.999991 -30.54
7.02555862 0.999990 -45.34 0.003390 -128.0 0.003390 -128.0 0.999990 -30.56
7.02734105 0.999989 -45.36 0.003530 -128.0 0.003530 -128.0 0.999989 -30.58
7.02908263 0.999989 -45.37 0.003678 -128.0 0.003678 -128.0 0.999989 -30.60
7.03078430 0.999988 -45.39 0.003836 -128.0 0.003836 -128.0 0.999988 -30.62
7.03244698 0.999987 -45.41 0.004004 -128.1 0.004004 -128.1 0.999987 -30.65
7.03407156 0.999987 -45.43 0.004183 -128.1 0.004183 -128.1 0.999986 -30.67
7.03565892 0.999986 -45.44 0.004375 -128.1 0.004375 -128.1 0.999985 -30.69
7.03720991 0.999985 -45.46 0.004580 -128.1 0.004580 -128.1 0.999984 -30.72
7.03872535 0.999983 -45.48 0.004799 -128.1 0.004799 -128.1 0.999982 -30.74
7.04020607 0.999982 -45.50 0.005035 -128.2 0.005035 -128.2 0.999981 -30.77
7.04165287 0.999981 -45.52 0.005290 -128.2 0.005290 -128.2 0.999979 -30.80
7.04306651 0.999979 -45.54 0.005565 -128.2 0.005565 -128.2 0.999977 -30.83
7.04444776 0.999977 -45.56 0.005863 -128.2 0.005863 -128.2 0.999975 -30.86
7.04579736 0.999975 -45.58 0.006186 -128.3 0.006186 -128.3 0.999972 -30.90
7.04711603 0.999972 -45.60 0.006539 -128.3 0.006539 -128.3 0.999969 -30.94
7.04840449 0.999969 -45.62 0.006925 -128.3 0.006925 -128.3 0.999966 -30.98
7.04966343 0.999966 -45.64 0.007350 -128.4 0.007350 -128.4 0.999962 -31.02
7.05000000 0.999965 -45.65 0.007472 -128.4 0.007472 -128.4 0.999960 -31.03
!< P1 F=7.05 Eeff=(6.44800275 -2.9731e-5) Z0=(51.78663 1.19476e-4) R=0.04327426 C=0.00240603 
!< P2 F=7.05 Eeff=(6.44800275 -2.9731e-5) Z0=(51.78663 1.19476e-4) R=0.04327426 C=0.00240603 
7.05089352 0.999962 -45.67 0.007818 -128.4 0.007818 -128.4 0.999957 -31.07
7.05209542 0.999957 -45.70 0.008337 -128.5 0.008337 -128.5 0.999951 -31.12
7.05326978 0.999951 -45.73 0.008916 -128.5 0.008916 -128.5 0.999945 -31.17
7.05441724 0.999944 -45.76 0.009564 -128.6 0.009564 -128.6 0.999937 -31.24
7.05553840 0.999936 -45.79 0.010297 -128.6 0.010297 -128.6 0.999927 -31.31
7.05663387 0.999926 -45.83 0.011131 -128.7 0.011131 -128.7 0.999915 -31.38
7.05770424 0.999913 -45.87 0.012087 -128.7 0.012087 -128.7 0.999900 -31.47
7.05875008 0.999897 -45.92 0.013195 -128.8 0.013195 -128.8 0.999881 -31.58
7.05977196 0.999877 -45.98 0.014494 -128.9 0.014494 -128.9 0.999857 -31.69
7.06077042 0.999850 -46.04 0.016037 -129.0 0.016037 -129.0 0.999826 -31.84
7.06174601 0.999814 -46.12 0.017899 -129.2 0.017899 -129.2 0.999784 -32.00
7.06269924 0.999764 -46.21 0.020191 -129.3 0.020191 -129.3 0.999726 -32.21
7.06363063 0.999693 -46.32 0.023079 -129.5 0.023079 -129.5 0.999642 -32.47
7.06454068 0.999586 -46.47 0.026830 -129.8 0.026830 -129.8 0.999517 -32.80
7.06542987 0.999416 -46.66 0.031895 -130.2 0.031895 -130.2 0.999319 -33.26
7.06629869 0.999124 -46.93 0.039111 -130.7 0.039111 -130.7 0.998977 -33.90
7.06714760 0.998558 -47.35 0.050207 -131.4 0.050207 -131.4 0.998315 -34.88
7.06797707 0.997242 -48.07 0.069441 -132.8 0.069441 -132.8 0.996776 -36.59
7.06878752 0.992968 -49.61 0.110802 -135.6 0.110802 -135.6 0.991774 -40.27
7.06957940 0.960813 -55.09 0.259505 -146.2 0.259505 -146.2 0.954018 -53.91
7.07035314 0.832016 -27.05 0.519347 90.687 0.519347 90.687 0.800083 20.830
7.07110915 0.987052 -39.93 0.150144 62.419 0.150144 62.419 0.984844 -17.12
7.07184784 0.995708 -42.29 0.086604 57.989 0.086604 57.989 0.994981 -22.81
7.07256960 0.997860 -43.24 0.061163 56.224 0.061163 56.224 0.997499 -25.07
7.07327482 0.998708 -43.76 0.047501 55.276 0.047501 55.276 0.998491 -26.28
7.07396388 0.999129 -44.08 0.038984 54.684 0.038984 54.684 0.998983 -27.04
7.07463716 0.999369 -44.30 0.033169 54.279 0.033169 54.279 0.999263 -27.56
7.07529500 0.999518 -44.46 0.028947 53.985 0.028947 53.985 0.999438 -27.93
7.07593777 0.999618 -44.58 0.025745 53.760 0.025745 53.760 0.999555 -28.22
7.07656582 0.999688 -44.68 0.023232 53.583 0.023232 53.583 0.999637 -28.44
7.07717947 0.999740 -44.76 0.021209 53.441 0.021209 53.441 0.999697 -28.62
7.07777906 0.999778 -44.83 0.019546 53.323 0.019546 53.323 0.999743 -28.77
7.07836492 0.999808 -44.88 0.018154 53.223 0.018154 53.223 0.999778 -28.90
7.07893735 0.999832 -44.93 0.016973 53.139 0.016973 53.139 0.999805 -29.00
7.07949666 0.999851 -44.97 0.015958 53.066 0.015958 53.066 0.999828 -29.10
7.08004316 0.999867 -45.01 0.015077 53.002 0.015077 53.002 0.999846 -29.18
7.08057713 0.999880 -45.04 0.014306 52.946 0.014306 52.946 0.999861 -29.25
7.08109887 0.999891 -45.07 0.013624 52.896 0.013624 52.896 0.999874 -29.31
7.08160865 0.999900 -45.09 0.013018 52.851 0.013018 52.851 0.999884 -29.37
7.08210676 0.999908 -45.12 0.012475 52.811 0.012475 52.811 0.999894 -29.42
7.08259345 0.999914 -45.14 0.011987 52.775 0.011987 52.775 0.999902 -29.46
7.08306898 0.999920 -45.16 0.011546 52.742 0.011546 52.742 0.999909 -29.50
7.08353362 0.999926 -45.18 0.011145 52.712 0.011145 52.712 0.999915 -29.54
7.08398762 0.999930 -45.19 0.010779 52.684 0.010779 52.684 0.999920 -29.57
7.08443121 0.999934 -45.21 0.010443 52.658 0.010443 52.658 0.999925 -29.61
7.08486464 0.999938 -45.22 0.010135 52.635 0.010135 52.635 0.999929 -29.63
7.08528813 0.999941 -45.24 0.009852 52.613 0.009852 52.613 0.999933 -29.66
7.08570193 0.999944 -45.25 0.009589 52.593 0.009589 52.593 0.999936 -29.69
7.08610624 0.999947 -45.26 0.009346 52.574 0.009346 52.574 0.999939 -29.71
7.08650128 0.999949 -45.27 0.009119 52.556 0.009119 52.556 0.999942 -29.73
7.08688728 0.999951 -45.28 0.008909 52.539 0.008909 52.539 0.999945 -29.75
7.08726443 0.999953 -45.29 0.008712 52.524 0.008712 52.524 0.999947 -29.77
7.08763293 0.999955 -45.30 0.008528 52.509 0.008528 52.509 0.999949 -29.79
7.08799300 0.999957 -45.31 0.008355 52.495 0.008355 52.495 0.999951 -29.81
7.08834481 0.999958 -45.32 0.008194 52.482 0.008194 52.482 0.999953 -29.82
7.08868856 0.999960 -45.33 0.008041 52.470 0.008041 52.470 0.999954 -29.84
7.08902444 0.999961 -45.33 0.007898 52.458 0.007898 52.458 0.999956 -29.85
7.08935262 0.999962 -45.34 0.007762 52.447 0.007762 52.447 0.999957 -29.86
7.08967328 0.999963 -45.35 0.007635 52.436 0.007635 52.436 0.999959 -29.88
7.08998659 0.999964 -45.35 0.007514 52.426 0.007514 52.426 0.999960 -29.89
7.09029272 0.999965 -45.36 0.007399 52.416 0.007399 52.416 0.999961 -29.90
7.09059184 0.999966 -45.37 0.007291 52.407 0.007291 52.407 0.999962 -29.91
7.09088410 0.999967 -45.37 0.007187 52.399 0.007187 52.399 0.999963 -29.92
7.09116967 0.999968 -45.38 0.007089 52.390 0.007089 52.390 0.999964 -29.93
7.09144869 0.999969 -45.38 0.006996 52.382 0.006996 52.382 0.999965 -29.94
7.09172133 0.999969 -45.39 0.006908 52.375 0.006908 52.375 0.999966 -29.95
7.09198771 0.999970 -45.39 0.006823 52.367 0.006823 52.367 0.999966 -29.96
7.09224799 0.999971 -45.40 0.006742 52.360 0.006742 52.360 0.999967 -29.97
7.09250230 0.999971 -45.40 0.006665 52.354 0.006665 52.354 0.999968 -29.97
7.09275079 0.999972 -45.41 0.006592 52.347 0.006592 52.347 0.999969 -29.98
7.09299359 0.999972 -45.41 0.006522 52.341 0.006522 52.341 0.999969 -29.99
7.09323082 0.999973 -45.41 0.006454 52.335 0.006454 52.335 0.999970 -30.00
7.09346261 0.999973 -45.42 0.006390 52.329 0.006390 52.329 0.999970 -30.00
7.09368910 0.999974 -45.42 0.006328 52.324 0.006328 52.324 0.999971 -30.01
7.09391039 0.999974 -45.42 0.006269 52.319 0.006269 52.319 0.999971 -30.02
7.09412661 0.999974 -45.43 0.006212 52.314 0.006212 52.314 0.999972 -30.02
7.09433788 0.999975 -45.43 0.006158 52.309 0.006158 52.309 0.999972 -30.03
7.09454431 0.999975 -45.44 0.006105 52.304 0.006105 52.304 0.999973 -30.03
7.09474601 0.999976 -45.44 0.006055 52.299 0.006055 52.299 0.999973 -30.04
7.09494308 0.999976 -45.44 0.006007 52.295 0.006007 52.295 0.999973 -30.04
7.09513565 0.999976 -45.44 0.005960 52.291 0.005960 52.291 0.999974 -30.05
7.09532379 0.999977 -45.45 0.005916 52.287 0.005916 52.287 0.999974 -30.05
7.09550763 0.999977 -45.45 0.005872 52.283 0.005872 52.283 0.999975 -30.06
7.09568726 0.999977 -45.45 0.005831 52.279 0.005831 52.279 0.999975 -30.06
7.09586276 0.999977 -45.46 0.005791 52.275 0.005791 52.275 0.999975 -30.07
7.09603425 0.999978 -45.46 0.005752 52.271 0.005752 52.271 0.999975 -30.07
7.09620181 0.999978 -45.46 0.005715 52.268 0.005715 52.268 0.999976 -30.08
7.09636553 0.999978 -45.46 0.005679 52.265 0.005679 52.265 0.999976 -30.08
7.09652549 0.999978 -45.47 0.005645 52.261 0.005645 52.261 0.999976 -30.08
7.09668180 0.999979 -45.47 0.005611 52.258 0.005611 52.258 0.999977 -30.09
7.09683452 0.999979 -45.47 0.005579 52.255 0.005579 52.255 0.999977 -30.09
7.09698374 0.999979 -45.47 0.005548 52.252 0.005548 52.252 0.999977 -30.09
7.09712954 0.999979 -45.47 0.005518 52.249 0.005518 52.249 0.999977 -30.10
7.09727200 0.999979 -45.48 0.005489 52.246 0.005489 52.246 0.999977 -30.10
7.09741120 0.999979 -45.48 0.005461 52.244 0.005461 52.244 0.999978 -30.10
7.09754720 0.999980 -45.48 0.005433 52.241 0.005433 52.241 0.999978 -30.11
7.09768009 0.999980 -45.48 0.005407 52.239 0.005407 52.239 0.999978 -30.11
7.09780994 0.999980 -45.48 0.005381 52.236 0.005381 52.236 0.999978 -30.11
7.09793681 0.999980 -45.49 0.005357 52.234 0.005357 52.234 0.999978 -30.11
7.09806077 0.999980 -45.49 0.005333 52.231 0.005333 52.231 0.999979 -30.12
7.09818189 0.999980 -45.49 0.005310 52.229 0.005310 52.229 0.999979 -30.12
7.09830024 0.999981 -45.49 0.005287 52.227 0.005287 52.227 0.999979 -30.12
7.09841588 0.999981 -45.49 0.005266 52.225 0.005266 52.225 0.999979 -30.13
7.09852886 0.999981 -45.49 0.005244 52.223 0.005244 52.223 0.999979 -30.13
7.09863926 0.999981 -45.49 0.005224 52.221 0.005224 52.221 0.999979 -30.13
7.09874713 0.999981 -45.50 0.005204 52.219 0.005204 52.219 0.999979 -30.13
7.09885252 0.999981 -45.50 0.005185 52.217 0.005185 52.217 0.999980 -30.13
7.09895550 0.999981 -45.50 0.005166 52.215 0.005166 52.215 0.999980 -30.14
7.09905612 0.999981 -45.50 0.005148 52.213 0.005148 52.213 0.999980 -30.14
7.09915444 0.999981 -45.50 0.005131 52.211 0.005131 52.211 0.999980 -30.14
7.09925050 0.999982 -45.50 0.005114 52.210 0.005114 52.210 0.999980 -30.14
7.09934436 0.999982 -45.50 0.005097 52.208 0.005097 52.208 0.999980 -30.14
7.09943607 0.999982 -45.50 0.005081 52.206 0.005081 52.206 0.999980 -30.15
7.09952568 0.999982 -45.51 0.005066 52.205 0.005066 52.205 0.999980 -30.15
7.09961324 0.999982 -45.51 0.005050 52.203 0.005050 52.203 0.999981 -30.15
7.09969879 0.999982 -45.51 0.005036 52.202 0.005036 52.202 0.999981 -30.15
7.09978238 0.999982 -45.51 0.005021 52.200 0.005021 52.200 0.999981 -30.15
7.09986405 0.999982 -45.51 0.005008 52.199 0.005008 52.199 0.999981 -30.15
7.09994385 0.999982 -45.51 0.004994 52.198 0.004994 52.198 0.999981 -30.16
7.10000000 0.999982 -45.51 0.004985 52.197 0.004985 52.197 0.999981 -30.16
7.10002183 0.999982 -45.51 0.004981 52.196 0.004981 52.196 0.999981 -30.16
7.10009802 0.999982 -45.51 0.004968 52.195 0.004968 52.195 0.999981 -30.16
7.10017246 0.999982 -45.51 0.004956 52.194 0.004956 52.194 0.999981 -30.16
7.10024519 0.999983 -45.52 0.004944 52.192 0.004944 52.192 0.999981 -30.16
7.10031626 0.999983 -45.52 0.004932 52.191 0.004932 52.191 0.999981 -30.16
7.10038570 0.999983 -45.52 0.004921 52.190 0.004921 52.190 0.999981 -30.16
7.10045355 0.999983 -45.52 0.004910 52.189 0.004910 52.189 0.999981 -30.17
7.10051985 0.999983 -45.52 0.004899 52.188 0.004899 52.188 0.999982 -30.17
7.10058462 0.999983 -45.52 0.004888 52.187 0.004888 52.187 0.999982 -30.17
7.10064792 0.999983 -45.52 0.004878 52.186 0.004878 52.186 0.999982 -30.17
7.10070976 0.999983 -45.52 0.004868 52.185 0.004868 52.185 0.999982 -30.17
7.10077018 0.999983 -45.52 0.004859 52.184 0.004859 52.184 0.999982 -30.17
7.10082922 0.999983 -45.52 0.004849 52.183 0.004849 52.183 0.999982 -30.17
7.10088691 0.999983 -45.52 0.004840 52.182 0.004840 52.182 0.999982 -30.17
7.10094327 0.999983 -45.52 0.004831 52.181 0.004831 52.181 0.999982 -30.17
7.10099835 0.999983 -45.52 0.004822 52.180 0.004822 52.180 0.999982 -30.18
7.10105216 0.999983 -45.53 0.004814 52.179 0.004814 52.179 0.999982 -30.18
7.10110474 0.999983 -45.53 0.004806 52.178 0.004806 52.178 0.999982 -30.18
7.10115611 0.999983 -45.53 0.004798 52.177 0.004798 52.177 0.999982 -30.18
7.10120631 0.999983 -45.53 0.004790 52.177 0.004790 52.177 0.999982 -30.18
7.10125535 0.999983 -45.53 0.004782 52.176 0.004782 52.176 0.999982 -30.18
7.10130328 0.999983 -45.53 0.004775 52.175 0.004775 52.175 0.999982 -30.18
7.10135010 0.999984 -45.53 0.004768 52.174 0.004768 52.174 0.999982 -30.18
7.10139585 0.999984 -45.53 0.004761 52.174 0.004761 52.174 0.999982 -30.18
7.10144056 0.999984 -45.53 0.004754 52.173 0.004754 52.173 0.999982 -30.18
