! Sonnet Data File
! From: emgraph Version : 16.54
! From Project: BusResonator_17
! Data is De-embedded 
! Data File Written: 08/31/2017 18:33:07
!< HDATE 08/31/2017 16:58:22
!< MDATE 08/31/2017 17:03:00
!< PARAMS
!< BusLengthControl = 2600.0
!< END PARAMS
# GHZ S MA R 50.00000
6.00000000 0.999994 -92.83 6.485e-5 -149.3 6.485e-5 -149.3 0.999998 -25.72
!< P1 F=6.0 Eeff=(6.44857038 -2.9736e-5) Z0=(51.7893065 1.19468e-4) R=0.05083541 C=0.00240605 
!< P2 F=6.0 Eeff=(6.44857038 -2.9736e-5) Z0=(51.7893065 1.19468e-4) R=0.05083541 C=0.00240605 
6.05000000 0.999994 -93.62 6.618e-5 -149.8 6.618e-5 -149.8 0.999998 -25.94
6.10000000 0.999994 -94.42 6.754e-5 -150.3 6.754e-5 -150.3 0.999998 -26.16
6.15000000 0.999994 -95.21 6.893e-5 -150.8 6.893e-5 -150.8 0.999998 -26.38
6.20000000 0.999994 -96.00 7.035e-5 -151.3 7.035e-5 -151.3 0.999998 -26.60
6.25000000 0.999994 -96.80 7.180e-5 -151.8 7.180e-5 -151.8 0.999998 -26.82
6.30000000 0.999994 -97.59 7.328e-5 -152.3 7.328e-5 -152.3 0.999998 -27.04
6.35000000 0.999994 -98.39 7.480e-5 -152.8 7.480e-5 -152.8 0.999998 -27.26
6.40000000 0.999994 -99.18 7.635e-5 -153.3 7.635e-5 -153.3 0.999998 -27.48
6.45000000 0.999994 -99.98 7.794e-5 -153.8 7.794e-5 -153.8 0.999998 -27.70
6.50000000 0.999994 -100.8 7.956e-5 -154.3 7.956e-5 -154.3 0.999998 -27.92
6.55000000 0.999994 -101.6 8.122e-5 -154.9 8.122e-5 -154.9 0.999998 -28.14
6.60000000 0.999994 -102.4 8.291e-5 -155.4 8.291e-5 -155.4 0.999998 -28.36
6.65000000 0.999994 -103.2 8.464e-5 -155.9 8.464e-5 -155.9 0.999998 -28.59
6.70000000 0.999993 -104.0 8.641e-5 -156.4 8.641e-5 -156.4 0.999998 -28.81
!< P1 F=6.7 Eeff=(6.4482022 -2.9733e-5) Z0=(51.7875789 1.19473e-4) R=0.04553467 C=0.00240604 
!< P2 F=6.7 Eeff=(6.4482022 -2.9733e-5) Z0=(51.7875789 1.19473e-4) R=0.04553467 C=0.00240604 
6.75000000 0.999993 -104.8 8.821e-5 -156.9 8.821e-5 -156.9 0.999998 -29.03
6.80000000 0.999993 -105.6 9.005e-5 -157.4 9.005e-5 -157.4 0.999998 -29.26
6.85000000 0.999993 -106.4 9.192e-5 -157.9 9.192e-5 -157.9 0.999998 -29.48
6.90000000 0.999993 -107.2 9.383e-5 -158.4 9.383e-5 -158.4 0.999998 -29.70
6.95000000 0.999993 -108.0 9.578e-5 -158.9 9.578e-5 -158.9 0.999998 -29.93
7.00000000 0.999993 -108.8 9.776e-5 -159.5 9.776e-5 -159.5 0.999997 -30.15
7.05000000 0.999993 -109.6 9.977e-5 -160.0 9.977e-5 -160.0 0.999997 -30.37
7.10000000 0.999993 -110.4 1.018e-4 -160.5 1.018e-4 -160.5 0.999997 -30.60
7.15000000 0.999993 -111.2 1.039e-4 -161.0 1.039e-4 -161.0 0.999997 -30.83
7.20000000 0.999993 -112.0 1.060e-4 -161.5 1.060e-4 -161.5 0.999997 -31.05
7.25000000 0.999993 -112.8 1.081e-4 -162.0 1.081e-4 -162.0 0.999997 -31.28
7.30000000 0.999993 -113.6 1.102e-4 -162.5 1.102e-4 -162.5 0.999997 -31.50
7.35000000 0.999993 -114.4 1.123e-4 -163.0 1.123e-4 -163.0 0.999997 -31.73
7.40000000 0.999993 -115.2 1.144e-4 -163.6 1.144e-4 -163.6 0.999997 -31.96
7.45000000 0.999993 -116.0 1.165e-4 -164.1 1.165e-4 -164.1 0.999997 -32.19
7.50000000 0.999993 -116.8 1.186e-4 -164.6 1.186e-4 -164.6 0.999997 -32.41
7.55000000 0.999993 -117.6 1.206e-4 -165.1 1.206e-4 -165.1 0.999997 -32.64
7.60000000 0.999993 -118.4 1.225e-4 -165.6 1.225e-4 -165.6 0.999997 -32.87
7.65000000 0.999993 -119.2 1.243e-4 -166.1 1.243e-4 -166.1 0.999997 -33.10
7.70000000 0.999993 -120.0 1.260e-4 -166.7 1.260e-4 -166.7 0.999997 -33.33
7.75000000 0.999993 -120.8 1.274e-4 -167.2 1.274e-4 -167.2 0.999997 -33.57
7.80000000 0.999993 -121.6 1.286e-4 -167.7 1.286e-4 -167.7 0.999997 -33.80
7.85000000 0.999993 -122.4 1.294e-4 -168.2 1.294e-4 -168.2 0.999997 -34.03
7.90000000 0.999993 -123.2 1.298e-4 -168.7 1.298e-4 -168.7 0.999997 -34.26
7.95000000 0.999993 -124.0 1.294e-4 -169.3 1.294e-4 -169.3 0.999997 -34.50
8.00000000 0.999993 -124.8 1.282e-4 -169.8 1.282e-4 -169.8 0.999997 -34.73
8.05000000 0.999993 -125.6 1.258e-4 -170.3 1.258e-4 -170.3 0.999997 -34.97
8.10000000 0.999993 -126.4 1.217e-4 -170.8 1.217e-4 -170.8 0.999997 -35.21
8.15000000 0.999993 -127.2 1.152e-4 -171.3 1.152e-4 -171.3 0.999997 -35.44
8.20000000 0.999993 -128.1 1.051e-4 -171.9 1.051e-4 -171.9 0.999997 -35.68
8.25000000 0.999993 -128.9 8.930e-5 -172.4 8.930e-5 -172.4 0.999997 -35.92
8.30000000 0.999993 -129.7 6.426e-5 -172.9 6.426e-5 -172.9 0.999997 -36.17
8.35000000 0.999993 -130.5 2.236e-5 -173.4 2.236e-5 -173.4 0.999997 -36.41
8.40000000 0.999993 -131.3 5.479e-5 5.9806 5.479e-5 5.9806 0.999997 -36.65
8.40601487 0.999993 -131.4 6.835e-5 5.9204 6.835e-5 5.9204 0.999997 -36.68
8.41189191 0.999993 -131.5 8.291e-5 5.8602 8.291e-5 5.8602 0.999997 -36.71
8.41763429 0.999993 -131.6 9.857e-5 5.8005 9.857e-5 5.8005 0.999997 -36.74
8.42324509 0.999993 -131.7 1.154e-4 5.7414 1.154e-4 5.7414 0.999997 -36.77
8.42872732 0.999993 -131.8 1.337e-4 5.6832 1.337e-4 5.6832 0.999997 -36.80
8.43408394 0.999993 -131.9 1.534e-4 5.6259 1.534e-4 5.6259 0.999997 -36.82
8.43931782 0.999993 -132.0 1.748e-4 5.5695 1.748e-4 5.5695 0.999997 -36.85
8.44443176 0.999993 -132.0 1.980e-4 5.5141 1.980e-4 5.5141 0.999997 -36.88
8.44942853 0.999993 -132.1 2.234e-4 5.4595 2.234e-4 5.4595 0.999997 -36.90
8.45000000 0.999993 -132.1 2.264e-4 5.4532 2.264e-4 5.4532 0.999997 -36.90
8.45431080 0.999992 -132.2 2.511e-4 5.4058 2.511e-4 5.4058 0.999997 -36.93
8.45908121 0.999992 -132.3 2.814e-4 5.3529 2.814e-4 5.3529 0.999997 -36.95
8.46374230 0.999992 -132.4 3.149e-4 5.3007 3.149e-4 5.3007 0.999997 -36.97
8.46829659 0.999992 -132.5 3.519e-4 5.2493 3.519e-4 5.2493 0.999997 -37.00
8.47274652 0.999992 -132.5 3.929e-4 5.1985 3.929e-4 5.1985 0.999997 -37.02
8.47709449 0.999992 -132.6 4.387e-4 5.1483 4.387e-4 5.1483 0.999997 -37.04
8.48134283 0.999992 -132.7 4.901e-4 5.0985 4.901e-4 5.0985 0.999997 -37.06
8.48549383 0.999992 -132.8 5.482e-4 5.0490 5.482e-4 5.0490 0.999997 -37.09
8.48954971 0.999992 -132.8 6.142e-4 4.9997 6.142e-4 4.9997 0.999997 -37.11
8.49351266 0.999992 -132.9 6.899e-4 4.9504 6.899e-4 4.9504 0.999997 -37.13
8.49738479 0.999991 -133.0 7.776e-4 4.9008 7.776e-4 4.9008 0.999996 -37.15
8.50000000 0.999991 -133.0 8.464e-4 4.8663 8.464e-4 4.8663 0.999996 -37.17
8.50116821 0.999991 -133.1 8.801e-4 4.8506 8.801e-4 4.8506 0.999996 -37.17
8.50486493 0.999991 -133.1 0.001002 4.7994 0.001002 4.7994 0.999996 -37.19
8.50847694 0.999990 -133.2 0.001148 4.7466 0.001148 4.7466 0.999996 -37.22
8.51200619 0.999989 -133.3 0.001327 4.6913 0.001327 4.6913 0.999996 -37.24
8.51545458 0.999988 -133.4 0.001552 4.6322 0.001552 4.6322 0.999995 -37.26
8.51882394 0.999987 -133.5 0.001842 4.5674 0.001842 4.5674 0.999994 -37.28
8.52211610 0.999984 -133.6 0.002229 4.4936 0.002229 4.4936 0.999993 -37.31
8.52533283 0.999980 -133.7 0.002773 4.4046 0.002773 4.4046 0.999991 -37.34
8.52847585 0.999972 -133.8 0.003593 4.2886 0.003593 4.2886 0.999988 -37.38
8.53154685 0.999954 -134.1 0.004969 4.1172 0.004969 4.1172 0.999979 -37.43
8.53454748 0.999901 -134.5 0.007751 3.8044 0.007751 3.8044 0.999955 -37.51
8.53747935 0.999597 -135.6 0.016343 2.9051 0.016343 2.9051 0.999811 -37.75
8.54034405 0.844960 -89.92 0.314547 -141.8 0.314547 -141.8 0.929174 -30.08
8.54314310 0.999634 -131.6 0.015933 -173.9 0.015933 -173.9 0.999823 -36.95
8.54587802 0.999896 -132.6 0.008374 -174.7 0.008374 -174.7 0.999949 -37.16
8.54855027 0.999948 -133.0 0.005783 -175.0 0.005783 -175.0 0.999974 -37.24
8.55000000 0.999960 -133.1 0.004970 -175.1 0.004970 -175.1 0.999980 -37.26
8.55116129 0.999966 -133.2 0.004475 -175.1 0.004475 -175.1 0.999984 -37.28
8.55371248 0.999975 -133.3 0.003685 -175.2 0.003685 -175.2 0.999988 -37.32
8.55620521 0.999980 -133.4 0.003158 -175.3 0.003158 -175.3 0.999990 -37.34
8.55864083 0.999983 -133.5 0.002780 -175.4 0.002780 -175.4 0.999992 -37.36
8.56102063 0.999985 -133.6 0.002497 -175.4 0.002497 -175.4 0.999993 -37.38
8.56334591 0.999986 -133.7 0.002277 -175.5 0.002277 -175.5 0.999994 -37.40
8.56561790 0.999987 -133.7 0.002101 -175.5 0.002101 -175.5 0.999994 -37.42
8.56783784 0.999988 -133.8 0.001956 -175.6 0.001956 -175.6 0.999994 -37.43
8.57000690 0.999989 -133.8 0.001836 -175.6 0.001836 -175.6 0.999995 -37.44
8.57212627 0.999989 -133.9 0.001735 -175.6 0.001735 -175.6 0.999995 -37.46
8.57419707 0.999990 -133.9 0.001648 -175.7 0.001648 -175.7 0.999995 -37.47
8.57622043 0.999990 -134.0 0.001573 -175.7 0.001573 -175.7 0.999995 -37.48
8.57819742 0.999990 -134.0 0.001507 -175.7 0.001507 -175.7 0.999995 -37.49
8.58012911 0.999990 -134.0 0.001450 -175.7 0.001450 -175.7 0.999996 -37.50
8.58201654 0.999991 -134.1 0.001398 -175.8 0.001398 -175.8 0.999996 -37.51
8.58386072 0.999991 -134.1 0.001352 -175.8 0.001352 -175.8 0.999996 -37.53
8.58566264 0.999991 -134.1 0.001311 -175.8 0.001311 -175.8 0.999996 -37.54
8.58742327 0.999991 -134.2 0.001274 -175.8 0.001274 -175.8 0.999996 -37.55
8.58914356 0.999991 -134.2 0.001240 -175.9 0.001240 -175.9 0.999996 -37.55
8.59082444 0.999991 -134.2 0.001210 -175.9 0.001210 -175.9 0.999996 -37.56
8.59246679 0.999991 -134.3 0.001182 -175.9 0.001182 -175.9 0.999996 -37.57
8.59407152 0.999991 -134.3 0.001156 -175.9 0.001156 -175.9 0.999996 -37.58
8.59563947 0.999991 -134.3 0.001132 -175.9 0.001132 -175.9 0.999996 -37.59
8.59717150 0.999992 -134.4 0.001111 -176.0 0.001111 -176.0 0.999996 -37.60
8.59866842 0.999992 -134.4 0.001090 -176.0 0.001090 -176.0 0.999996 -37.61
8.60000000 0.999992 -134.4 0.001073 -176.0 0.001073 -176.0 0.999996 -37.61
8.60013104 0.999992 -134.4 0.001072 -176.0 0.001072 -176.0 0.999996 -37.61
8.60156015 0.999992 -134.4 0.001054 -176.0 0.001054 -176.0 0.999996 -37.62
8.60295651 0.999992 -134.5 0.001038 -176.0 0.001038 -176.0 0.999996 -37.63
8.60432088 0.999992 -134.5 0.001023 -176.0 0.001023 -176.0 0.999996 -37.64
8.60565398 0.999992 -134.5 0.001008 -176.1 0.001008 -176.1 0.999996 -37.64
8.60695654 0.999992 -134.5 9.950e-4 -176.1 9.950e-4 -176.1 0.999996 -37.65
8.60822925 0.999992 -134.6 9.825e-4 -176.1 9.825e-4 -176.1 0.999996 -37.66
8.60947280 0.999992 -134.6 9.707e-4 -176.1 9.707e-4 -176.1 0.999996 -37.66
8.61068785 0.999992 -134.6 9.596e-4 -176.1 9.596e-4 -176.1 0.999996 -37.67
8.61187506 0.999992 -134.6 9.491e-4 -176.1 9.491e-4 -176.1 0.999996 -37.68
8.61303507 0.999992 -134.6 9.392e-4 -176.1 9.392e-4 -176.1 0.999996 -37.68
8.61416850 0.999992 -134.7 9.298e-4 -176.2 9.298e-4 -176.2 0.999996 -37.69
8.61527595 0.999992 -134.7 9.209e-4 -176.2 9.209e-4 -176.2 0.999996 -37.69
8.61635803 0.999992 -134.7 9.125e-4 -176.2 9.125e-4 -176.2 0.999996 -37.70
8.61741532 0.999992 -134.7 9.045e-4 -176.2 9.045e-4 -176.2 0.999996 -37.70
8.61844838 0.999992 -134.7 8.969e-4 -176.2 8.969e-4 -176.2 0.999996 -37.71
8.61945777 0.999992 -134.7 8.897e-4 -176.2 8.897e-4 -176.2 0.999996 -37.72
8.62044403 0.999992 -134.8 8.828e-4 -176.2 8.828e-4 -176.2 0.999996 -37.72
8.62140769 0.999992 -134.8 8.763e-4 -176.2 8.763e-4 -176.2 0.999996 -37.73
8.62234927 0.999992 -134.8 8.700e-4 -176.3 8.700e-4 -176.3 0.999996 -37.73
8.62326927 0.999992 -134.8 8.641e-4 -176.3 8.641e-4 -176.3 0.999996 -37.74
8.62416819 0.999992 -134.8 8.584e-4 -176.3 8.584e-4 -176.3 0.999996 -37.74
8.62504652 0.999992 -134.8 8.529e-4 -176.3 8.529e-4 -176.3 0.999996 -37.74
8.62590472 0.999992 -134.9 8.477e-4 -176.3 8.477e-4 -176.3 0.999996 -37.75
8.62674325 0.999992 -134.9 8.427e-4 -176.3 8.427e-4 -176.3 0.999996 -37.75
8.62756258 0.999992 -134.9 8.380e-4 -176.3 8.380e-4 -176.3 0.999996 -37.76
8.62836312 0.999992 -134.9 8.334e-4 -176.3 8.334e-4 -176.3 0.999996 -37.76
8.62914533 0.999992 -134.9 8.290e-4 -176.3 8.290e-4 -176.3 0.999996 -37.77
8.62990961 0.999992 -134.9 8.248e-4 -176.3 8.248e-4 -176.3 0.999996 -37.77
8.63065638 0.999992 -134.9 8.207e-4 -176.3 8.207e-4 -176.3 0.999996 -37.77
8.63138603 0.999992 -134.9 8.169e-4 -176.4 8.169e-4 -176.4 0.999996 -37.78
8.63209897 0.999992 -135.0 8.131e-4 -176.4 8.131e-4 -176.4 0.999996 -37.78
8.63279557 0.999992 -135.0 8.095e-4 -176.4 8.095e-4 -176.4 0.999996 -37.78
8.63347621 0.999992 -135.0 8.061e-4 -176.4 8.061e-4 -176.4 0.999996 -37.79
8.63414126 0.999992 -135.0 8.028e-4 -176.4 8.028e-4 -176.4 0.999996 -37.79
8.63479106 0.999992 -135.0 7.996e-4 -176.4 7.996e-4 -176.4 0.999997 -37.79
8.63542598 0.999992 -135.0 7.965e-4 -176.4 7.965e-4 -176.4 0.999997 -37.80
8.63604634 0.999992 -135.0 7.935e-4 -176.4 7.935e-4 -176.4 0.999997 -37.80
8.63665250 0.999992 -135.0 7.906e-4 -176.4 7.906e-4 -176.4 0.999997 -37.80
8.63724476 0.999992 -135.0 7.879e-4 -176.4 7.879e-4 -176.4 0.999997 -37.81
8.63782345 0.999992 -135.1 7.852e-4 -176.4 7.852e-4 -176.4 0.999997 -37.81
8.63838888 0.999992 -135.1 7.826e-4 -176.4 7.826e-4 -176.4 0.999997 -37.81
8.63894136 0.999992 -135.1 7.802e-4 -176.4 7.802e-4 -176.4 0.999997 -37.82
8.63948118 0.999992 -135.1 7.778e-4 -176.4 7.778e-4 -176.4 0.999997 -37.82
8.64000862 0.999992 -135.1 7.755e-4 -176.5 7.755e-4 -176.5 0.999997 -37.82
8.64052399 0.999992 -135.1 7.732e-4 -176.5 7.732e-4 -176.5 0.999997 -37.82
8.64102754 0.999992 -135.1 7.710e-4 -176.5 7.710e-4 -176.5 0.999997 -37.83
8.64151955 0.999992 -135.1 7.690e-4 -176.5 7.690e-4 -176.5 0.999997 -37.83
8.64200029 0.999992 -135.1 7.669e-4 -176.5 7.669e-4 -176.5 0.999997 -37.83
8.64247002 0.999992 -135.1 7.650e-4 -176.5 7.650e-4 -176.5 0.999997 -37.83
8.64292898 0.999992 -135.1 7.631e-4 -176.5 7.631e-4 -176.5 0.999997 -37.84
8.64337742 0.999992 -135.2 7.612e-4 -176.5 7.612e-4 -176.5 0.999997 -37.84
8.64381559 0.999992 -135.2 7.595e-4 -176.5 7.595e-4 -176.5 0.999997 -37.84
8.64424372 0.999992 -135.2 7.577e-4 -176.5 7.577e-4 -176.5 0.999997 -37.84
8.64466204 0.999992 -135.2 7.561e-4 -176.5 7.561e-4 -176.5 0.999997 -37.85
8.64507078 0.999992 -135.2 7.545e-4 -176.5 7.545e-4 -176.5 0.999997 -37.85
8.64547015 0.999992 -135.2 7.529e-4 -176.5 7.529e-4 -176.5 0.999997 -37.85
8.64586036 0.999992 -135.2 7.514e-4 -176.5 7.514e-4 -176.5 0.999997 -37.85
8.64624164 0.999992 -135.2 7.499e-4 -176.5 7.499e-4 -176.5 0.999997 -37.85
8.64661418 0.999992 -135.2 7.485e-4 -176.5 7.485e-4 -176.5 0.999997 -37.86
8.64697818 0.999992 -135.2 7.471e-4 -176.5 7.471e-4 -176.5 0.999997 -37.86
8.64733384 0.999992 -135.2 7.458e-4 -176.5 7.458e-4 -176.5 0.999997 -37.86
8.64768136 0.999992 -135.2 7.445e-4 -176.5 7.445e-4 -176.5 0.999997 -37.86
8.64802091 0.999992 -135.2 7.432e-4 -176.5 7.432e-4 -176.5 0.999997 -37.86
8.64835268 0.999992 -135.2 7.420e-4 -176.5 7.420e-4 -176.5 0.999997 -37.86
8.64867684 0.999992 -135.2 7.408e-4 -176.5 7.408e-4 -176.5 0.999997 -37.87
8.64899358 0.999992 -135.2 7.396e-4 -176.6 7.396e-4 -176.6 0.999997 -37.87
8.64930307 0.999992 -135.3 7.385e-4 -176.6 7.385e-4 -176.6 0.999997 -37.87
8.64960546 0.999992 -135.3 7.374e-4 -176.6 7.374e-4 -176.6 0.999997 -37.87
8.64990092 0.999992 -135.3 7.364e-4 -176.6 7.364e-4 -176.6 0.999997 -37.87
8.65000000 0.999992 -135.3 7.360e-4 -176.6 7.360e-4 -176.6 0.999997 -37.87
!< P1 F=8.65 Eeff=(6.44696224 -2.9721e-5) Z0=(51.7814975 1.19491e-4) R=0.03526993 C=0.002406 
!< P2 F=8.65 Eeff=(6.44696224 -2.9721e-5) Z0=(51.7814975 1.19491e-4) R=0.03526993 C=0.002406 
8.65018961 0.999992 -135.3 7.353e-4 -176.6 7.353e-4 -176.6 0.999997 -37.87
8.65047169 0.999992 -135.3 7.343e-4 -176.6 7.343e-4 -176.6 0.999997 -37.88
8.65074730 0.999992 -135.3 7.333e-4 -176.6 7.333e-4 -176.6 0.999997 -37.88
8.65101660 0.999992 -135.3 7.324e-4 -176.6 7.324e-4 -176.6 0.999997 -37.88
8.65127973 0.999992 -135.3 7.315e-4 -176.6 7.315e-4 -176.6 0.999997 -37.88
8.65153682 0.999992 -135.3 7.306e-4 -176.6 7.306e-4 -176.6 0.999997 -37.88
8.65178803 0.999992 -135.3 7.297e-4 -176.6 7.297e-4 -176.6 0.999997 -37.88
8.65203348 0.999992 -135.3 7.289e-4 -176.6 7.289e-4 -176.6 0.999997 -37.88
8.65227331 0.999992 -135.3 7.281e-4 -176.6 7.281e-4 -176.6 0.999997 -37.88
8.65250764 0.999992 -135.3 7.273e-4 -176.6 7.273e-4 -176.6 0.999997 -37.89
8.65273660 0.999992 -135.3 7.265e-4 -176.6 7.265e-4 -176.6 0.999997 -37.89
8.65296032 0.999992 -135.3 7.257e-4 -176.6 7.257e-4 -176.6 0.999997 -37.89
8.65317890 0.999992 -135.3 7.250e-4 -176.6 7.250e-4 -176.6 0.999997 -37.89
8.65339249 0.999992 -135.3 7.243e-4 -176.6 7.243e-4 -176.6 0.999997 -37.89
8.65360117 0.999992 -135.3 7.236e-4 -176.6 7.236e-4 -176.6 0.999997 -37.89
8.65380508 0.999992 -135.3 7.229e-4 -176.6 7.229e-4 -176.6 0.999997 -37.89
8.65400431 0.999992 -135.3 7.222e-4 -176.6 7.222e-4 -176.6 0.999997 -37.89
8.65419898 0.999992 -135.3 7.216e-4 -176.6 7.216e-4 -176.6 0.999997 -37.89
8.65438918 0.999992 -135.3 7.210e-4 -176.6 7.210e-4 -176.6 0.999997 -37.90
8.65457503 0.999992 -135.3 7.204e-4 -176.6 7.204e-4 -176.6 0.999997 -37.90
8.65475662 0.999992 -135.3 7.198e-4 -176.6 7.198e-4 -176.6 0.999997 -37.90
8.65493405 0.999992 -135.3 7.192e-4 -176.6 7.192e-4 -176.6 0.999997 -37.90
8.65510741 0.999992 -135.3 7.186e-4 -176.6 7.186e-4 -176.6 0.999997 -37.90
8.65527681 0.999992 -135.4 7.181e-4 -176.6 7.181e-4 -176.6 0.999997 -37.90
8.65544232 0.999992 -135.4 7.176e-4 -176.6 7.176e-4 -176.6 0.999997 -37.90
8.65560403 0.999992 -135.4 7.170e-4 -176.6 7.170e-4 -176.6 0.999997 -37.90
8.65576204 0.999992 -135.4 7.165e-4 -176.6 7.165e-4 -176.6 0.999997 -37.90
8.65591644 0.999992 -135.4 7.160e-4 -176.6 7.160e-4 -176.6 0.999997 -37.90
8.65606729 0.999992 -135.4 7.156e-4 -176.6 7.156e-4 -176.6 0.999997 -37.90
8.65621469 0.999992 -135.4 7.151e-4 -176.6 7.151e-4 -176.6 0.999997 -37.90
8.65635870 0.999992 -135.4 7.146e-4 -176.6 7.146e-4 -176.6 0.999997 -37.91
8.65649942 0.999992 -135.4 7.142e-4 -176.6 7.142e-4 -176.6 0.999997 -37.91
8.65663692 0.999992 -135.4 7.138e-4 -176.6 7.138e-4 -176.6 0.999997 -37.91
8.65677126 0.999992 -135.4 7.133e-4 -176.6 7.133e-4 -176.6 0.999997 -37.91
8.65690253 0.999992 -135.4 7.129e-4 -176.6 7.129e-4 -176.6 0.999997 -37.91
8.65703079 0.999992 -135.4 7.125e-4 -176.6 7.125e-4 -176.6 0.999997 -37.91
8.65715611 0.999992 -135.4 7.121e-4 -176.6 7.121e-4 -176.6 0.999997 -37.91
8.65727855 0.999992 -135.4 7.117e-4 -176.6 7.117e-4 -176.6 0.999997 -37.91
8.65739820 0.999992 -135.4 7.114e-4 -176.6 7.114e-4 -176.6 0.999997 -37.91
8.65751510 0.999992 -135.4 7.110e-4 -176.6 7.110e-4 -176.6 0.999997 -37.91
8.65762932 0.999992 -135.4 7.107e-4 -176.6 7.107e-4 -176.6 0.999997 -37.91
8.65774092 0.999992 -135.4 7.103e-4 -176.6 7.103e-4 -176.6 0.999997 -37.91
8.65784997 0.999992 -135.4 7.100e-4 -176.6 7.100e-4 -176.6 0.999997 -37.91
8.65795652 0.999992 -135.4 7.097e-4 -176.6 7.097e-4 -176.6 0.999997 -37.91
8.65806063 0.999992 -135.4 7.093e-4 -176.6 7.093e-4 -176.6 0.999997 -37.91
8.65816235 0.999992 -135.4 7.090e-4 -176.7 7.090e-4 -176.7 0.999997 -37.91
8.65826174 0.999992 -135.4 7.087e-4 -176.7 7.087e-4 -176.7 0.999997 -37.92
8.65835885 0.999992 -135.4 7.084e-4 -176.7 7.084e-4 -176.7 0.999997 -37.92
8.65845374 0.999992 -135.4 7.081e-4 -176.7 7.081e-4 -176.7 0.999997 -37.92
8.65854646 0.999992 -135.4 7.078e-4 -176.7 7.078e-4 -176.7 0.999997 -37.92
8.65863705 0.999992 -135.4 7.076e-4 -176.7 7.076e-4 -176.7 0.999997 -37.92
8.65872556 0.999992 -135.4 7.073e-4 -176.7 7.073e-4 -176.7 0.999997 -37.92
8.65881204 0.999992 -135.4 7.070e-4 -176.7 7.070e-4 -176.7 0.999997 -37.92
8.65889655 0.999992 -135.4 7.068e-4 -176.7 7.068e-4 -176.7 0.999997 -37.92
8.65897912 0.999992 -135.4 7.065e-4 -176.7 7.065e-4 -176.7 0.999997 -37.92
8.65905979 0.999992 -135.4 7.063e-4 -176.7 7.063e-4 -176.7 0.999997 -37.92
8.65913862 0.999992 -135.4 7.061e-4 -176.7 7.061e-4 -176.7 0.999997 -37.92
8.65921564 0.999992 -135.4 7.058e-4 -176.7 7.058e-4 -176.7 0.999997 -37.92
8.65929090 0.999992 -135.4 7.056e-4 -176.7 7.056e-4 -176.7 0.999997 -37.92
8.65936443 0.999992 -135.4 7.054e-4 -176.7 7.054e-4 -176.7 0.999997 -37.92
8.65943627 0.999992 -135.4 7.052e-4 -176.7 7.052e-4 -176.7 0.999997 -37.92
8.65950648 0.999992 -135.4 7.050e-4 -176.7 7.050e-4 -176.7 0.999997 -37.92
8.65957507 0.999992 -135.4 7.048e-4 -176.7 7.048e-4 -176.7 0.999997 -37.92
8.65964209 0.999992 -135.4 7.046e-4 -176.7 7.046e-4 -176.7 0.999997 -37.92
8.65970757 0.999992 -135.4 7.044e-4 -176.7 7.044e-4 -176.7 0.999997 -37.92
8.65977156 0.999992 -135.4 7.042e-4 -176.7 7.042e-4 -176.7 0.999997 -37.92
