! Sonnet Data File
! From: emgraph Version : 16.54
! From Project: BusResonator_17
! Data is De-embedded 
! Data File Written: 08/31/2017 18:33:07
!< HDATE 08/31/2017 16:58:22
!< MDATE 08/31/2017 17:03:00
!< PARAMS
!< BusLengthControl = 4600.0
!< END PARAMS
# GHZ S MA R 50.00000
6.00000000 0.999993 -167.8 2.097e-5 173.23 2.097e-5 173.23 0.999998 -25.71
!< P1 F=6.0 Eeff=(6.44857038 -2.9736e-5) Z0=(51.7893065 1.19468e-4) R=0.05083541 C=0.00240605 
!< P2 F=6.0 Eeff=(6.44857038 -2.9736e-5) Z0=(51.7893065 1.19468e-4) R=0.05083541 C=0.00240605 
6.05000000 0.999993 -169.3 2.111e-5 172.39 2.111e-5 172.39 0.999998 -25.93
6.10000000 0.999993 -170.7 2.124e-5 171.56 2.124e-5 171.56 0.999998 -26.15
6.15000000 0.999993 -172.2 2.137e-5 170.72 2.137e-5 170.72 0.999998 -26.37
6.20000000 0.999993 -173.6 2.149e-5 169.89 2.149e-5 169.89 0.999998 -26.59
6.25000000 0.999993 -175.1 2.161e-5 169.05 2.161e-5 169.05 0.999998 -26.81
6.30000000 0.999993 -176.5 2.172e-5 168.21 2.172e-5 168.21 0.999998 -27.03
6.35000000 0.999993 -178.0 2.181e-5 167.38 2.181e-5 167.38 0.999998 -27.25
6.40000000 0.999993 -179.4 2.190e-5 166.54 2.190e-5 166.54 0.999998 -27.47
6.45000000 0.999992 179.10 2.198e-5 165.71 2.198e-5 165.71 0.999998 -27.69
!< P1 F=6.45 Eeff=(6.44833838 -2.9734e-5) Z0=(51.7882217 1.19471e-4) R=0.04730167 C=0.00240604 
!< P2 F=6.45 Eeff=(6.44833838 -2.9734e-5) Z0=(51.7882217 1.19471e-4) R=0.04730167 C=0.00240604 
6.50000000 0.999992 177.65 2.205e-5 164.87 2.205e-5 164.87 0.999998 -27.91
6.55000000 0.999992 176.20 2.211e-5 164.03 2.211e-5 164.03 0.999998 -28.14
6.60000000 0.999992 174.75 2.215e-5 163.20 2.215e-5 163.20 0.999998 -28.36
6.65000000 0.999992 173.30 2.219e-5 162.36 2.219e-5 162.36 0.999998 -28.58
6.70000000 0.999992 171.85 2.221e-5 161.52 2.221e-5 161.52 0.999998 -28.80
6.75000000 0.999992 170.40 2.221e-5 160.69 2.221e-5 160.69 0.999998 -29.02
6.80000000 0.999992 168.95 2.220e-5 159.85 2.220e-5 159.85 0.999998 -29.25
6.85000000 0.999992 167.50 2.217e-5 159.01 2.217e-5 159.01 0.999998 -29.47
6.90000000 0.999992 166.05 2.212e-5 158.18 2.212e-5 158.18 0.999998 -29.69
6.95000000 0.999992 164.60 2.205e-5 157.34 2.205e-5 157.34 0.999998 -29.92
7.00000000 0.999992 163.15 2.196e-5 156.50 2.196e-5 156.50 0.999998 -30.14
7.05000000 0.999992 161.70 2.185e-5 155.67 2.185e-5 155.67 0.999998 -30.37
7.10000000 0.999992 160.25 2.171e-5 154.83 2.171e-5 154.83 0.999998 -30.59
7.15000000 0.999992 158.80 2.155e-5 153.99 2.155e-5 153.99 0.999998 -30.82
7.20000000 0.999992 157.35 2.136e-5 153.16 2.136e-5 153.16 0.999998 -31.04
7.25000000 0.999992 155.91 2.114e-5 152.32 2.114e-5 152.32 0.999997 -31.27
!< P1 F=7.25 Eeff=(6.4478842 -2.973e-5) Z0=(51.7860612 1.19477e-4) R=0.04208086 C=0.00240603 
!< P2 F=7.25 Eeff=(6.4478842 -2.973e-5) Z0=(51.7860612 1.19477e-4) R=0.04208086 C=0.00240603 
7.30000000 0.999993 154.46 2.088e-5 151.48 2.088e-5 151.48 0.999997 -31.50
7.35000000 0.999993 153.01 2.059e-5 150.64 2.059e-5 150.64 0.999997 -31.72
7.40000000 0.999993 151.57 2.026e-5 149.81 2.026e-5 149.81 0.999997 -31.95
7.45000000 0.999993 150.12 1.989e-5 148.97 1.989e-5 148.97 0.999997 -32.18
7.50000000 0.999993 148.68 1.948e-5 148.13 1.948e-5 148.13 0.999997 -32.41
7.55000000 0.999993 147.23 1.902e-5 147.30 1.902e-5 147.30 0.999997 -32.64
7.60000000 0.999993 145.79 1.851e-5 146.46 1.851e-5 146.46 0.999997 -32.87
7.65000000 0.999993 144.35 1.794e-5 145.63 1.794e-5 145.63 0.999997 -33.10
7.70000000 0.999993 142.91 1.732e-5 144.79 1.732e-5 144.79 0.999997 -33.33
7.75000000 0.999993 141.47 1.663e-5 143.95 1.663e-5 143.95 0.999997 -33.56
7.80000000 0.999993 140.03 1.587e-5 143.12 1.587e-5 143.12 0.999997 -33.79
7.85000000 0.999993 138.59 1.503e-5 142.28 1.503e-5 142.28 0.999997 -34.02
7.90000000 0.999993 137.15 1.412e-5 141.44 1.412e-5 141.44 0.999997 -34.26
7.95000000 0.999993 135.71 1.311e-5 140.61 1.311e-5 140.61 0.999997 -34.49
8.00000000 0.999993 134.28 1.201e-5 139.77 1.201e-5 139.77 0.999997 -34.73
8.05000000 0.999993 132.84 1.080e-5 138.93 1.080e-5 138.93 0.999997 -34.97
8.10000000 0.999993 131.41 9.486e-6 138.10 9.486e-6 138.10 0.999997 -35.20
8.15000000 0.999993 129.97 8.044e-6 137.26 8.044e-6 137.26 0.999997 -35.44
8.20000000 0.999993 128.54 6.467e-6 136.42 6.467e-6 136.42 0.999997 -35.68
8.25000000 0.999993 127.11 4.743e-6 135.58 4.743e-6 135.58 0.999997 -35.92
8.30000000 0.999993 125.68 2.858e-6 134.74 2.858e-6 134.74 0.999997 -36.17
8.35000000 0.999993 124.25 7.978e-7 133.86 7.978e-7 133.86 0.999997 -36.41
8.40000000 0.999993 122.82 1.456e-6 -46.88 1.456e-6 -46.88 0.999997 -36.65
8.45000000 0.999993 121.39 3.921e-6 -47.74 3.921e-6 -47.74 0.999997 -36.90
8.50000000 0.999993 119.96 6.620e-6 -48.59 6.620e-6 -48.59 0.999997 -37.15
8.55000000 0.999993 118.54 9.576e-6 -49.43 9.576e-6 -49.43 0.999997 -37.40
8.60000000 0.999993 117.11 1.282e-5 -50.27 1.282e-5 -50.27 0.999997 -37.65
8.65000000 0.999993 115.69 1.637e-5 -51.11 1.637e-5 -51.11 0.999997 -37.91
8.70000000 0.999992 114.27 2.027e-5 -51.95 2.027e-5 -51.95 0.999997 -38.16
8.75000000 0.999992 112.85 2.456e-5 -52.79 2.456e-5 -52.79 0.999997 -38.42
8.80000000 0.999992 111.43 2.929e-5 -53.63 2.929e-5 -53.63 0.999997 -38.69
8.85000000 0.999992 110.01 3.450e-5 -54.47 3.450e-5 -54.47 0.999997 -38.95
8.90000000 0.999992 108.59 4.024e-5 -55.31 4.024e-5 -55.31 0.999997 -39.22
8.95000000 0.999992 107.18 4.660e-5 -56.16 4.660e-5 -56.16 0.999997 -39.49
9.00000000 0.999992 105.76 5.365e-5 -57.01 5.365e-5 -57.01 0.999997 -39.77
9.05000000 0.999992 104.35 6.148e-5 -57.85 6.148e-5 -57.85 0.999997 -40.05
9.10000000 0.999992 102.93 7.020e-5 -58.70 7.020e-5 -58.70 0.999997 -40.34
9.15000000 0.999992 101.52 7.993e-5 -59.56 7.993e-5 -59.56 0.999996 -40.63
9.20000000 0.999992 100.11 9.082e-5 -60.41 9.082e-5 -60.41 0.999996 -40.93
9.25000000 0.999992 98.703 1.031e-4 -61.27 1.031e-4 -61.27 0.999996 -41.24
9.30000000 0.999992 97.295 1.169e-4 -62.13 1.169e-4 -62.13 0.999996 -41.55
9.35000000 0.999992 95.888 1.325e-4 -63.00 1.325e-4 -63.00 0.999996 -41.88
!< P1 F=9.35 Eeff=(6.44644057 -2.9716e-5) Z0=(51.7787949 1.19498e-4) R=0.03258565 C=0.00240598 
!< P2 F=9.35 Eeff=(6.44644057 -2.9716e-5) Z0=(51.7787949 1.19498e-4) R=0.03258565 C=0.00240598 
9.40000000 0.999992 94.483 1.503e-4 -63.87 1.503e-4 -63.87 0.999996 -42.22
9.45000000 0.999992 93.079 1.706e-4 -64.75 1.706e-4 -64.75 0.999996 -42.57
9.50000000 0.999991 91.676 1.939e-4 -65.63 1.939e-4 -65.63 0.999996 -42.93
9.55000000 0.999991 90.274 2.209e-4 -66.53 2.209e-4 -66.53 0.999996 -43.32
9.60000000 0.999991 88.873 2.525e-4 -67.43 2.525e-4 -67.43 0.999995 -43.73
9.65000000 0.999991 87.474 2.895e-4 -68.35 2.895e-4 -68.35 0.999995 -44.17
9.70000000 0.999991 86.076 3.336e-4 -69.29 3.336e-4 -69.29 0.999995 -44.64
9.75000000 0.999991 84.679 3.865e-4 -70.25 3.865e-4 -70.25 0.999995 -45.16
9.80000000 0.999991 83.283 4.511e-4 -71.23 4.511e-4 -71.23 0.999994 -45.74
9.85000000 0.999991 81.888 5.312e-4 -72.26 5.312e-4 -72.26 0.999993 -46.39
9.90000000 0.999991 80.495 6.327e-4 -73.33 6.327e-4 -73.33 0.999993 -47.15
9.95000000 0.999991 79.102 7.647e-4 -74.49 7.647e-4 -74.49 0.999991 -48.07
10.0000000 0.999990 77.711 9.423e-4 -75.75 9.423e-4 -75.75 0.999989 -49.21
10.0500000 0.999990 76.321 0.001192 -77.20 0.001192 -77.20 0.999986 -50.70
10.1000000 0.999989 74.933 0.001568 -78.95 0.001568 -78.95 0.999980 -52.81
10.1500000 0.999988 73.545 0.002191 -81.31 0.002191 -81.31 0.999968 -56.14
10.2000000 0.999985 72.158 0.003408 -85.14 0.003408 -85.14 0.999934 -62.41
10.2500000 0.999968 70.770 0.006719 -94.28 0.006719 -94.28 0.999776 -79.28
10.3000000 0.999729 69.387 0.022850 -155.7 0.022850 -155.7 0.997677 159.23
10.3500000 0.999954 68.013 0.008496 121.99 0.008496 121.99 0.999705 -4.074
10.4000000 0.999980 66.629 0.004531 111.04 0.004531 111.04 0.999921 -24.57
10.4500000 0.999985 65.247 0.003176 106.84 0.003176 106.84 0.999962 -31.58
10.5000000 0.999987 63.867 0.002505 104.35 0.002505 104.35 0.999977 -35.18
10.5500000 0.999988 62.489 0.002109 102.53 0.002109 102.53 0.999984 -37.42
10.6000000 0.999988 61.111 0.001851 101.06 0.001851 101.06 0.999987 -39.00
10.6500000 0.999989 59.734 0.001672 99.775 0.001672 99.775 0.999989 -40.19
10.7000000 0.999989 58.359 0.001542 98.610 0.001542 98.610 0.999991 -41.14
10.7500000 0.999989 56.984 0.001445 97.525 0.001445 97.525 0.999992 -41.93
10.8000000 0.999989 55.611 0.001372 96.496 0.001372 96.496 0.999992 -42.62
10.8500000 0.999989 54.239 0.001316 95.506 0.001316 95.506 0.999993 -43.22
10.9000000 0.999989 52.867 0.001274 94.546 0.001274 94.546 0.999993 -43.77
10.9500000 0.999989 51.497 0.001242 93.609 0.001242 93.609 0.999994 -44.28
11.0000000 0.999989 50.127 0.001218 92.689 0.001218 92.689 0.999994 -44.75
11.0500000 0.999989 48.758 0.001202 91.783 0.001202 91.783 0.999994 -45.19
11.1000000 0.999989 47.390 0.001192 90.888 0.001192 90.888 0.999994 -45.61
11.1500000 0.999989 46.024 0.001187 90.002 0.001187 90.002 0.999994 -46.02
11.2000000 0.999988 44.657 0.001188 89.123 0.001188 89.123 0.999994 -46.41
11.2500000 0.999988 43.292 0.001193 88.250 0.001193 88.250 0.999994 -46.79
11.3000000 0.999988 41.928 0.001202 87.381 0.001202 87.381 0.999994 -47.16
11.3500000 0.999988 40.564 0.001216 86.515 0.001216 86.515 0.999994 -47.53
11.4000000 0.999988 39.201 0.001234 85.652 0.001234 85.652 0.999994 -47.89
11.4500000 0.999988 37.839 0.001256 84.790 0.001256 84.790 0.999994 -48.26
11.5000000 0.999988 36.478 0.001283 83.929 0.001283 83.929 0.999994 -48.62
11.5500000 0.999988 35.117 0.001315 83.069 0.001315 83.069 0.999994 -48.98
11.6000000 0.999988 33.757 0.001351 82.207 0.001351 82.207 0.999994 -49.34
11.6500000 0.999987 32.397 0.001393 81.345 0.001393 81.345 0.999994 -49.70
11.7000000 0.999987 31.039 0.001441 80.480 0.001441 80.480 0.999994 -50.08
11.7500000 0.999987 29.680 0.001496 79.611 0.001496 79.611 0.999993 -50.45
11.8000000 0.999987 28.323 0.001558 78.739 0.001558 78.739 0.999993 -50.84
11.8500000 0.999987 26.966 0.001630 77.861 0.001630 77.861 0.999993 -51.24
11.9000000 0.999987 25.609 0.001711 76.976 0.001711 76.976 0.999993 -51.65
11.9500000 0.999986 24.253 0.001804 76.083 0.001804 76.083 0.999992 -52.08
12.0000000 0.999986 22.898 0.001912 75.179 0.001912 75.179 0.999992 -52.54
12.0053941 0.999986 22.751 0.001924 75.081 0.001924 75.081 0.999992 -52.59
12.0106645 0.999986 22.608 0.001937 74.985 0.001937 74.985 0.999992 -52.63
12.0158142 0.999986 22.469 0.001949 74.890 0.001949 74.890 0.999992 -52.68
12.0208459 0.999986 22.332 0.001961 74.798 0.001961 74.798 0.999992 -52.73
12.0257623 0.999986 22.199 0.001974 74.708 0.001974 74.708 0.999992 -52.78
12.0305660 0.999986 22.069 0.001986 74.620 0.001986 74.620 0.999992 -52.82
12.0352597 0.999986 21.942 0.001998 74.534 0.001998 74.534 0.999991 -52.87
12.0398458 0.999986 21.818 0.002010 74.449 0.002010 74.449 0.999991 -52.91
12.0443268 0.999986 21.696 0.002021 74.366 0.002021 74.366 0.999991 -52.96
12.0487052 0.999986 21.577 0.002033 74.285 0.002033 74.285 0.999991 -53.00
12.0500000 0.999986 21.542 0.002036 74.261 0.002036 74.261 0.999991 -53.01
12.0529832 0.999986 21.461 0.002044 74.206 0.002044 74.206 0.999991 -53.04
12.0571632 0.999986 21.348 0.002056 74.129 0.002056 74.129 0.999991 -53.09
12.0612474 0.999986 21.238 0.002067 74.053 0.002067 74.053 0.999991 -53.13
12.0652381 0.999986 21.129 0.002078 73.979 0.002078 73.979 0.999991 -53.17
12.0691373 0.999985 21.024 0.002089 73.906 0.002089 73.906 0.999991 -53.21
12.0729471 0.999985 20.920 0.002100 73.835 0.002100 73.835 0.999991 -53.25
12.0766697 0.999985 20.820 0.002111 73.765 0.002111 73.765 0.999991 -53.28
12.0803069 0.999985 20.721 0.002122 73.697 0.002122 73.697 0.999991 -53.32
12.0838609 0.999985 20.625 0.002133 73.631 0.002133 73.631 0.999991 -53.36
12.0873333 0.999985 20.531 0.002143 73.566 0.002143 73.566 0.999991 -53.39
12.0907262 0.999985 20.439 0.002153 73.502 0.002153 73.502 0.999991 -53.43
12.0940414 0.999985 20.349 0.002164 73.439 0.002164 73.439 0.999991 -53.47
12.0972806 0.999985 20.261 0.002174 73.378 0.002174 73.378 0.999991 -53.50
12.1000000 0.999985 20.188 0.002182 73.327 0.002182 73.327 0.999991 -53.53
12.1004456 0.999985 20.175 0.002184 73.319 0.002184 73.319 0.999991 -53.53
12.1035381 0.999985 20.092 0.002193 73.260 0.002193 73.260 0.999991 -53.57
12.1065597 0.999985 20.010 0.002203 73.203 0.002203 73.203 0.999990 -53.60
12.1095120 0.999985 19.930 0.002213 73.147 0.002213 73.147 0.999990 -53.63
12.1123967 0.999985 19.852 0.002222 73.092 0.002222 73.092 0.999990 -53.66
12.1152154 0.999985 19.775 0.002232 73.038 0.002232 73.038 0.999990 -53.69
12.1179694 0.999985 19.701 0.002241 72.986 0.002241 72.986 0.999990 -53.72
12.1206603 0.999985 19.628 0.002250 72.935 0.002250 72.935 0.999990 -53.75
12.1232896 0.999985 19.557 0.002259 72.885 0.002259 72.885 0.999990 -53.78
12.1258586 0.999985 19.487 0.002268 72.835 0.002268 72.835 0.999990 -53.81
12.1283688 0.999985 19.419 0.002276 72.787 0.002276 72.787 0.999990 -53.84
12.1308214 0.999985 19.353 0.002285 72.740 0.002285 72.740 0.999990 -53.87
12.1332178 0.999985 19.288 0.002293 72.694 0.002293 72.694 0.999990 -53.89
12.1355594 0.999985 19.224 0.002302 72.649 0.002302 72.649 0.999990 -53.92
12.1378472 0.999985 19.162 0.002310 72.605 0.002310 72.605 0.999990 -53.95
12.1400827 0.999985 19.102 0.002318 72.562 0.002318 72.562 0.999990 -53.97
12.1422669 0.999985 19.043 0.002326 72.520 0.002326 72.520 0.999990 -54.00
12.1444011 0.999985 18.985 0.002334 72.479 0.002334 72.479 0.999990 -54.02
12.1464864 0.999985 18.928 0.002341 72.439 0.002341 72.439 0.999990 -54.05
12.1485238 0.999985 18.873 0.002349 72.399 0.002349 72.399 0.999990 -54.07
12.1500000 0.999985 18.833 0.002354 72.371 0.002354 72.371 0.999990 -54.09
12.1505147 0.999985 18.819 0.002356 72.361 0.002356 72.361 0.999990 -54.09
12.1524598 0.999985 18.766 0.002364 72.323 0.002364 72.323 0.999990 -54.12
12.1543605 0.999985 18.715 0.002371 72.286 0.002371 72.286 0.999990 -54.14
12.1562175 0.999985 18.665 0.002378 72.250 0.002378 72.250 0.999990 -54.16
12.1580320 0.999985 18.616 0.002385 72.215 0.002385 72.215 0.999989 -54.18
12.1598050 0.999985 18.568 0.002392 72.180 0.002392 72.180 0.999989 -54.20
12.1615373 0.999985 18.521 0.002399 72.146 0.002399 72.146 0.999989 -54.22
12.1632299 0.999985 18.475 0.002405 72.113 0.002405 72.113 0.999989 -54.24
12.1648837 0.999985 18.430 0.002412 72.081 0.002412 72.081 0.999989 -54.26
12.1664997 0.999985 18.386 0.002418 72.049 0.002418 72.049 0.999989 -54.28
12.1680786 0.999985 18.343 0.002424 72.018 0.002424 72.018 0.999989 -54.30
12.1696213 0.999985 18.302 0.002431 71.988 0.002431 71.988 0.999989 -54.32
12.1711287 0.999984 18.261 0.002437 71.959 0.002437 71.959 0.999989 -54.34
12.1726016 0.999984 18.221 0.002443 71.930 0.002443 71.930 0.999989 -54.36
12.1740407 0.999984 18.182 0.002449 71.901 0.002449 71.901 0.999989 -54.37
12.1754468 0.999984 18.144 0.002454 71.874 0.002454 71.874 0.999989 -54.39
12.1768207 0.999984 18.107 0.002460 71.847 0.002460 71.847 0.999989 -54.41
12.1781631 0.999984 18.070 0.002466 71.820 0.002466 71.820 0.999989 -54.42
12.1794748 0.999984 18.035 0.002471 71.794 0.002471 71.794 0.999989 -54.44
12.1807564 0.999984 18.000 0.002476 71.769 0.002476 71.769 0.999989 -54.46
12.1820086 0.999984 17.966 0.002482 71.744 0.002482 71.744 0.999989 -54.47
12.1832321 0.999984 17.933 0.002487 71.720 0.002487 71.720 0.999989 -54.49
12.1844276 0.999984 17.901 0.002492 71.696 0.002492 71.696 0.999989 -54.50
12.1855958 0.999984 17.869 0.002497 71.673 0.002497 71.673 0.999989 -54.52
12.1867371 0.999984 17.838 0.002502 71.651 0.002502 71.651 0.999989 -54.53
12.1878523 0.999984 17.808 0.002507 71.629 0.002507 71.629 0.999989 -54.55
12.1889419 0.999984 17.778 0.002511 71.607 0.002511 71.607 0.999989 -54.56
12.1900066 0.999984 17.750 0.002516 71.586 0.002516 71.586 0.999989 -54.57
12.1910469 0.999984 17.721 0.002520 71.565 0.002520 71.565 0.999989 -54.59
12.1920633 0.999984 17.694 0.002525 71.545 0.002525 71.545 0.999989 -54.60
12.1930565 0.999984 17.667 0.002529 71.525 0.002529 71.525 0.999989 -54.61
12.1940269 0.999984 17.641 0.002533 71.506 0.002533 71.506 0.999989 -54.62
12.1949751 0.999984 17.615 0.002538 71.487 0.002538 71.487 0.999989 -54.64
12.1959015 0.999984 17.590 0.002542 71.468 0.002542 71.468 0.999989 -54.65
12.1968067 0.999984 17.565 0.002546 71.450 0.002546 71.450 0.999989 -54.66
12.1976912 0.999984 17.541 0.002550 71.433 0.002550 71.433 0.999989 -54.67
12.1985554 0.999984 17.518 0.002554 71.415 0.002554 71.415 0.999989 -54.68
12.1993997 0.999984 17.495 0.002557 71.398 0.002557 71.398 0.999989 -54.69
12.2000000 0.999984 17.479 0.002560 71.386 0.002560 71.386 0.999989 -54.70
12.2002248 0.999984 17.473 0.002561 71.382 0.002561 71.382 0.999988 -54.70
12.2010309 0.999984 17.451 0.002565 71.366 0.002565 71.366 0.999988 -54.71
12.2018186 0.999984 17.430 0.002568 71.350 0.002568 71.350 0.999988 -54.72
12.2025882 0.999984 17.409 0.002572 71.334 0.002572 71.334 0.999988 -54.73
12.2033402 0.999984 17.388 0.002575 71.319 0.002575 71.319 0.999988 -54.74
12.2040750 0.999984 17.369 0.002579 71.305 0.002579 71.305 0.999988 -54.75
12.2047929 0.999984 17.349 0.002582 71.290 0.002582 71.290 0.999988 -54.76
12.2054944 0.999984 17.330 0.002585 71.276 0.002585 71.276 0.999988 -54.77
12.2061798 0.999984 17.312 0.002588 71.262 0.002588 71.262 0.999988 -54.78
12.2068494 0.999984 17.293 0.002591 71.249 0.002591 71.249 0.999988 -54.79
12.2075038 0.999984 17.276 0.002594 71.236 0.002594 71.236 0.999988 -54.80
12.2081431 0.999984 17.258 0.002597 71.223 0.002597 71.223 0.999988 -54.81
12.2087679 0.999984 17.242 0.002600 71.210 0.002600 71.210 0.999988 -54.82
12.2093782 0.999984 17.225 0.002603 71.198 0.002603 71.198 0.999988 -54.82
12.2099746 0.999984 17.209 0.002606 71.186 0.002606 71.186 0.999988 -54.83
12.2105574 0.999984 17.193 0.002609 71.174 0.002609 71.174 0.999988 -54.84
12.2111268 0.999984 17.178 0.002611 71.163 0.002611 71.163 0.999988 -54.85
12.2116831 0.999984 17.163 0.002614 71.151 0.002614 71.151 0.999988 -54.85
12.2122267 0.999984 17.148 0.002617 71.140 0.002617 71.140 0.999988 -54.86
12.2127578 0.999984 17.133 0.002619 71.130 0.002619 71.130 0.999988 -54.87
12.2132768 0.999984 17.119 0.002622 71.119 0.002622 71.119 0.999988 -54.88
12.2137839 0.999984 17.106 0.002624 71.109 0.002624 71.109 0.999988 -54.88
12.2142793 0.999984 17.092 0.002626 71.099 0.002626 71.099 0.999988 -54.89
12.2147634 0.999984 17.079 0.002629 71.089 0.002629 71.089 0.999988 -54.90
12.2152364 0.999984 17.066 0.002631 71.079 0.002631 71.079 0.999988 -54.90
12.2156986 0.999984 17.054 0.002633 71.070 0.002633 71.070 0.999988 -54.91
12.2161502 0.999984 17.042 0.002635 71.061 0.002635 71.061 0.999988 -54.91
12.2165914 0.999984 17.030 0.002637 71.052 0.002637 71.052 0.999988 -54.92
12.2170225 0.999984 17.018 0.002640 71.043 0.002640 71.043 0.999988 -54.93
12.2174438 0.999984 17.007 0.002642 71.035 0.002642 71.035 0.999988 -54.93
12.2178553 0.999984 16.995 0.002644 71.026 0.002644 71.026 0.999988 -54.94
12.2182575 0.999984 16.985 0.002646 71.018 0.002646 71.018 0.999988 -54.94
12.2186505 0.999984 16.974 0.002647 71.010 0.002647 71.010 0.999988 -54.95
12.2190344 0.999984 16.964 0.002649 71.002 0.002649 71.002 0.999988 -54.95
12.2194095 0.999984 16.953 0.002651 70.995 0.002651 70.995 0.999988 -54.96
12.2197761 0.999984 16.943 0.002653 70.987 0.002653 70.987 0.999988 -54.96
12.2201342 0.999984 16.934 0.002655 70.980 0.002655 70.980 0.999988 -54.97
12.2204842 0.999984 16.924 0.002656 70.973 0.002656 70.973 0.999988 -54.97
12.2208261 0.999984 16.915 0.002658 70.966 0.002658 70.966 0.999988 -54.98
12.2211602 0.999984 16.906 0.002660 70.959 0.002660 70.959 0.999988 -54.98
12.2214866 0.999984 16.897 0.002661 70.953 0.002661 70.953 0.999988 -54.99
12.2218056 0.999984 16.888 0.002663 70.946 0.002663 70.946 0.999988 -54.99
12.2221172 0.999984 16.880 0.002664 70.940 0.002664 70.940 0.999988 -54.99
