! Sonnet Data File
! From: emgraph Version : 16.54
! From Project: BusResonator_17
! Data is De-embedded 
! Data File Written: 08/31/2017 18:33:07
!< HDATE 08/31/2017 16:58:22
!< MDATE 08/31/2017 17:03:00
!< PARAMS
!< BusLengthControl = 600.0
!< END PARAMS
# GHZ S MA R 50.00000
6.00000000 0.999998 -21.19 3.945e-5 -113.5 3.945e-5 -113.5 0.999998 -25.74
!< P1 F=6.0 Eeff=(6.44857038 -2.9736e-5) Z0=(51.7893065 1.19468e-4) R=0.05083541 C=0.00240605 
!< P2 F=6.0 Eeff=(6.44857038 -2.9736e-5) Z0=(51.7893065 1.19468e-4) R=0.05083541 C=0.00240605 
6.05000000 0.999998 -21.37 4.281e-5 -113.7 4.281e-5 -113.7 0.999999 -25.96
6.10000000 0.999997 -21.54 4.675e-5 -113.9 4.675e-5 -113.9 0.999999 -26.18
6.15000000 0.999997 -21.72 5.144e-5 -114.1 5.144e-5 -114.1 1.000000 -26.40
6.20000000 0.999997 -21.90 5.711e-5 -114.3 5.711e-5 -114.3 1.000000 -26.63
6.25000000 0.999998 -22.07 6.410e-5 -114.5 6.410e-5 -114.5 1.000000 -26.85
6.26014868 0.999998 -22.11 6.573e-5 -114.5 6.573e-5 -114.5 1.000000 -26.90
6.27006481 0.999998 -22.14 6.740e-5 -114.5 6.740e-5 -114.5 1.000000 -26.94
6.27975372 0.999998 -22.18 6.911e-5 -114.6 6.911e-5 -114.6 0.999999 -26.98
6.28922063 0.999998 -22.21 7.086e-5 -114.6 7.086e-5 -114.6 0.999999 -27.03
6.29847061 0.999998 -22.24 7.266e-5 -114.7 7.266e-5 -114.7 0.999999 -27.07
6.30000000 0.999998 -22.25 7.297e-5 -114.7 7.297e-5 -114.7 0.999999 -27.08
6.30750864 0.999998 -22.28 7.451e-5 -114.7 7.451e-5 -114.7 0.999999 -27.11
6.31633957 0.999998 -22.31 7.640e-5 -114.7 7.640e-5 -114.7 0.999999 -27.15
6.32496816 0.999998 -22.34 7.835e-5 -114.8 7.835e-5 -114.8 0.999999 -27.19
6.33339903 0.999998 -22.37 8.034e-5 -114.8 8.034e-5 -114.8 0.999999 -27.23
6.34163671 0.999998 -22.40 8.239e-5 -114.8 8.239e-5 -114.8 0.999999 -27.26
6.34968565 0.999998 -22.43 8.449e-5 -114.9 8.449e-5 -114.9 0.999999 -27.30
6.35000000 0.999998 -22.43 8.457e-5 -114.9 8.457e-5 -114.9 0.999999 -27.30
6.35755015 0.999998 -22.45 8.665e-5 -114.9 8.665e-5 -114.9 0.999999 -27.34
6.36523444 0.999998 -22.48 8.886e-5 -114.9 8.886e-5 -114.9 0.999999 -27.37
6.37274266 0.999998 -22.51 9.113e-5 -115.0 9.113e-5 -115.0 0.999999 -27.41
6.38007883 0.999998 -22.53 9.347e-5 -115.0 9.347e-5 -115.0 0.999999 -27.44
6.38724691 0.999998 -22.56 9.587e-5 -115.0 9.587e-5 -115.0 0.999999 -27.47
6.39425074 0.999998 -22.58 9.833e-5 -115.0 9.833e-5 -115.0 0.999999 -27.51
6.40000000 0.999998 -22.60 1.004e-4 -115.1 1.004e-4 -115.1 0.999998 -27.53
6.40109408 0.999998 -22.61 1.009e-4 -115.1 1.009e-4 -115.1 0.999998 -27.54
6.40778062 0.999998 -22.63 1.035e-4 -115.1 1.035e-4 -115.1 0.999998 -27.57
6.41431395 0.999998 -22.65 1.061e-4 -115.1 1.061e-4 -115.1 0.999998 -27.60
6.42069757 0.999998 -22.68 1.089e-4 -115.2 1.089e-4 -115.2 0.999998 -27.63
6.42693491 0.999998 -22.70 1.117e-4 -115.2 1.117e-4 -115.2 0.999998 -27.66
6.43302934 0.999998 -22.72 1.146e-4 -115.2 1.146e-4 -115.2 0.999998 -27.69
6.43898412 0.999998 -22.74 1.176e-4 -115.2 1.176e-4 -115.2 0.999998 -27.71
6.44480245 0.999998 -22.76 1.206e-4 -115.3 1.206e-4 -115.3 0.999998 -27.74
6.45000000 0.999998 -22.78 1.235e-4 -115.3 1.235e-4 -115.3 0.999998 -27.77
6.45048747 0.999998 -22.78 1.238e-4 -115.3 1.238e-4 -115.3 0.999998 -27.77
6.45604222 0.999998 -22.80 1.270e-4 -115.3 1.270e-4 -115.3 0.999998 -27.79
6.46146968 0.999998 -22.82 1.303e-4 -115.3 1.303e-4 -115.3 0.999998 -27.82
6.46677279 0.999998 -22.84 1.338e-4 -115.3 1.338e-4 -115.3 0.999998 -27.85
6.47195438 0.999998 -22.86 1.373e-4 -115.4 1.373e-4 -115.4 0.999998 -27.87
6.47701724 0.999998 -22.88 1.409e-4 -115.4 1.409e-4 -115.4 0.999998 -27.90
6.48196409 0.999998 -22.89 1.446e-4 -115.4 1.446e-4 -115.4 0.999998 -27.92
6.48679759 0.999998 -22.91 1.485e-4 -115.4 1.485e-4 -115.4 0.999998 -27.94
6.49152033 0.999998 -22.93 1.524e-4 -115.5 1.524e-4 -115.5 0.999998 -27.97
6.49613486 0.999998 -22.94 1.565e-4 -115.5 1.565e-4 -115.5 0.999998 -27.99
6.50000000 0.999998 -22.96 1.601e-4 -115.5 1.601e-4 -115.5 0.999998 -28.01
6.50064366 0.999998 -22.96 1.607e-4 -115.5 1.607e-4 -115.5 0.999998 -28.01
6.50504914 0.999998 -22.98 1.650e-4 -115.5 1.650e-4 -115.5 0.999998 -28.03
6.50935367 0.999998 -22.99 1.694e-4 -115.5 1.694e-4 -115.5 0.999998 -28.05
6.51355957 0.999998 -23.01 1.740e-4 -115.5 1.740e-4 -115.5 0.999998 -28.08
6.51766910 0.999998 -23.02 1.787e-4 -115.6 1.787e-4 -115.6 0.999998 -28.10
6.52168446 0.999998 -23.03 1.836e-4 -115.6 1.836e-4 -115.6 0.999998 -28.12
6.52560782 0.999998 -23.05 1.886e-4 -115.6 1.886e-4 -115.6 0.999998 -28.14
6.52944128 0.999998 -23.06 1.938e-4 -115.6 1.938e-4 -115.6 0.999998 -28.16
6.53318689 0.999998 -23.08 1.991e-4 -115.6 1.991e-4 -115.6 0.999998 -28.18
6.53684668 0.999998 -23.09 2.046e-4 -115.6 2.046e-4 -115.6 0.999998 -28.20
6.54042262 0.999998 -23.10 2.103e-4 -115.7 2.103e-4 -115.7 0.999998 -28.22
6.54391661 0.999998 -23.11 2.162e-4 -115.7 2.162e-4 -115.7 0.999998 -28.23
6.54733054 0.999998 -23.13 2.222e-4 -115.7 2.222e-4 -115.7 0.999998 -28.25
6.55000000 0.999998 -23.14 2.272e-4 -115.7 2.272e-4 -115.7 0.999998 -28.27
6.55066625 0.999998 -23.14 2.285e-4 -115.7 2.285e-4 -115.7 0.999998 -28.27
6.55392552 0.999998 -23.15 2.349e-4 -115.7 2.349e-4 -115.7 0.999998 -28.29
6.55711011 0.999998 -23.16 2.416e-4 -115.7 2.416e-4 -115.7 0.999998 -28.31
6.56022173 0.999998 -23.17 2.484e-4 -115.8 2.484e-4 -115.8 0.999998 -28.32
6.56326205 0.999998 -23.18 2.556e-4 -115.8 2.556e-4 -115.8 0.999998 -28.34
6.56623271 0.999998 -23.19 2.629e-4 -115.8 2.629e-4 -115.8 0.999998 -28.36
6.56913530 0.999998 -23.20 2.705e-4 -115.8 2.705e-4 -115.8 0.999998 -28.38
6.57197137 0.999998 -23.21 2.784e-4 -115.8 2.784e-4 -115.8 0.999998 -28.39
6.57474247 0.999998 -23.22 2.865e-4 -115.8 2.865e-4 -115.8 0.999997 -28.41
6.57745006 0.999998 -23.23 2.950e-4 -115.8 2.950e-4 -115.8 0.999997 -28.43
6.58009562 0.999998 -23.24 3.037e-4 -115.9 3.037e-4 -115.9 0.999997 -28.44
6.58268055 0.999998 -23.25 3.127e-4 -115.9 3.127e-4 -115.9 0.999997 -28.46
6.58520626 0.999998 -23.26 3.221e-4 -115.9 3.221e-4 -115.9 0.999997 -28.48
6.58767409 0.999998 -23.27 3.318e-4 -115.9 3.318e-4 -115.9 0.999997 -28.49
6.59008537 0.999998 -23.28 3.419e-4 -115.9 3.419e-4 -115.9 0.999997 -28.51
6.59244140 0.999998 -23.29 3.524e-4 -115.9 3.524e-4 -115.9 0.999997 -28.53
6.59474345 0.999998 -23.29 3.632e-4 -115.9 3.632e-4 -115.9 0.999997 -28.54
6.59699275 0.999998 -23.30 3.745e-4 -115.9 3.745e-4 -115.9 0.999997 -28.56
6.59919050 0.999998 -23.31 3.862e-4 -116.0 3.862e-4 -116.0 0.999997 -28.58
6.60000000 0.999998 -23.31 3.907e-4 -116.0 3.907e-4 -116.0 0.999997 -28.58
6.60133790 0.999998 -23.32 3.984e-4 -116.0 3.984e-4 -116.0 0.999997 -28.59
6.60343610 0.999998 -23.33 4.110e-4 -116.0 4.110e-4 -116.0 0.999997 -28.61
6.60548621 0.999998 -23.33 4.242e-4 -116.0 4.242e-4 -116.0 0.999997 -28.62
6.60748935 0.999998 -23.34 4.379e-4 -116.0 4.379e-4 -116.0 0.999997 -28.64
6.60944659 0.999998 -23.35 4.522e-4 -116.0 4.522e-4 -116.0 0.999997 -28.66
6.61135899 0.999998 -23.35 4.671e-4 -116.0 4.671e-4 -116.0 0.999997 -28.67
6.61322756 0.999998 -23.36 4.826e-4 -116.0 4.826e-4 -116.0 0.999996 -28.69
6.61505332 0.999998 -23.37 4.988e-4 -116.1 4.988e-4 -116.1 0.999996 -28.71
6.61683724 0.999998 -23.37 5.157e-4 -116.1 5.157e-4 -116.1 0.999996 -28.73
6.61858028 0.999998 -23.38 5.334e-4 -116.1 5.334e-4 -116.1 0.999996 -28.74
6.62028339 0.999998 -23.39 5.519e-4 -116.1 5.519e-4 -116.1 0.999996 -28.76
6.62194747 0.999998 -23.39 5.712e-4 -116.1 5.712e-4 -116.1 0.999996 -28.78
6.62357342 0.999998 -23.40 5.914e-4 -116.1 5.914e-4 -116.1 0.999996 -28.80
6.62516211 0.999998 -23.40 6.126e-4 -116.1 6.126e-4 -116.1 0.999996 -28.82
6.62671441 0.999998 -23.41 6.349e-4 -116.1 6.349e-4 -116.1 0.999995 -28.84
6.62823113 0.999998 -23.41 6.583e-4 -116.2 6.583e-4 -116.2 0.999995 -28.86
6.62971310 0.999998 -23.42 6.828e-4 -116.2 6.828e-4 -116.2 0.999995 -28.88
6.63116111 0.999998 -23.43 7.086e-4 -116.2 7.086e-4 -116.2 0.999995 -28.90
6.63257594 0.999998 -23.43 7.358e-4 -116.2 7.358e-4 -116.2 0.999995 -28.92
6.63395835 0.999998 -23.44 7.645e-4 -116.2 7.645e-4 -116.2 0.999994 -28.94
6.63530909 0.999998 -23.44 7.947e-4 -116.2 7.947e-4 -116.2 0.999994 -28.97
6.63662887 0.999998 -23.45 8.267e-4 -116.2 8.267e-4 -116.2 0.999994 -28.99
6.63791841 0.999998 -23.45 8.605e-4 -116.3 8.605e-4 -116.3 0.999993 -29.01
6.63917841 0.999998 -23.46 8.963e-4 -116.3 8.963e-4 -116.3 0.999993 -29.04
6.64040954 0.999998 -23.46 9.343e-4 -116.3 9.343e-4 -116.3 0.999993 -29.07
6.64161245 0.999998 -23.46 9.747e-4 -116.3 9.747e-4 -116.3 0.999992 -29.09
6.64278780 0.999998 -23.47 0.001018 -116.3 0.001018 -116.3 0.999992 -29.12
6.64393622 0.999998 -23.47 0.001064 -116.3 0.001064 -116.3 0.999991 -29.16
6.64505833 0.999998 -23.48 0.001112 -116.4 0.001112 -116.4 0.999990 -29.19
6.64615472 0.999997 -23.48 0.001165 -116.4 0.001165 -116.4 0.999990 -29.22
6.64722599 0.999997 -23.49 0.001221 -116.4 0.001221 -116.4 0.999989 -29.26
6.64827271 0.999997 -23.49 0.001281 -116.4 0.001281 -116.4 0.999988 -29.30
6.64929545 0.999997 -23.49 0.001347 -116.5 0.001347 -116.5 0.999987 -29.34
6.65000000 0.999997 -23.50 0.001395 -116.5 0.001395 -116.5 0.999986 -29.37
6.65029476 0.999997 -23.50 0.001417 -116.5 0.001417 -116.5 0.999986 -29.38
6.65127117 0.999997 -23.50 0.001493 -116.5 0.001493 -116.5 0.999984 -29.43
6.65222520 0.999997 -23.51 0.001576 -116.5 0.001576 -116.5 0.999983 -29.48
6.65315737 0.999997 -23.51 0.001666 -116.6 0.001666 -116.6 0.999981 -29.54
6.65406819 0.999996 -23.51 0.001765 -116.6 0.001765 -116.6 0.999979 -29.59
6.65495813 0.999996 -23.52 0.001873 -116.6 0.001873 -116.6 0.999977 -29.66
6.65582768 0.999996 -23.52 0.001993 -116.7 0.001993 -116.7 0.999974 -29.73
6.65667731 0.999996 -23.52 0.002126 -116.7 0.002126 -116.7 0.999970 -29.81
6.65750747 0.999995 -23.53 0.002274 -116.8 0.002274 -116.8 0.999967 -29.90
6.65831860 0.999995 -23.53 0.002440 -116.8 0.002440 -116.8 0.999962 -29.99
6.65911115 0.999994 -23.54 0.002627 -116.9 0.002627 -116.9 0.999956 -30.10
6.65988554 0.999994 -23.54 0.002841 -117.0 0.002841 -117.0 0.999949 -30.23
6.66064219 0.999993 -23.54 0.003085 -117.1 0.003085 -117.1 0.999940 -30.37
6.66138150 0.999992 -23.55 0.003369 -117.1 0.003369 -117.1 0.999929 -30.53
6.66210386 0.999991 -23.55 0.003701 -117.3 0.003701 -117.3 0.999915 -30.72
6.66280968 0.999989 -23.56 0.004096 -117.4 0.004096 -117.4 0.999896 -30.95
6.66349932 0.999987 -23.56 0.004572 -117.5 0.004572 -117.5 0.999872 -31.22
6.66417316 0.999983 -23.57 0.005158 -117.7 0.005158 -117.7 0.999837 -31.55
6.66483156 0.999979 -23.57 0.005897 -118.0 0.005897 -118.0 0.999788 -31.97
6.66547488 0.999972 -23.58 0.006856 -118.3 0.006856 -118.3 0.999714 -32.51
6.66610345 0.999961 -23.59 0.008152 -118.7 0.008152 -118.7 0.999597 -33.24
6.66671762 0.999943 -23.61 0.009997 -119.3 0.009997 -119.3 0.999395 -34.29
6.66731772 0.999906 -23.62 0.012833 -120.2 0.012833 -120.2 0.999004 -35.89
6.66790406 0.999823 -23.65 0.017743 -121.7 0.017743 -121.7 0.998097 -38.67
6.66847697 0.999553 -23.72 0.028266 -125.1 0.028266 -125.1 0.995168 -44.66
6.66903676 0.997619 -23.91 0.065305 -137.3 0.065305 -137.3 0.973949 -66.56
6.66958371 0.991441 -23.03 0.123647 106.97 0.123647 106.97 0.903167 50.437
6.67011814 0.999187 -23.34 0.038135 76.044 0.038135 76.044 0.991197 -6.998
6.67064032 0.999726 -23.43 0.022100 70.894 0.022100 70.894 0.997051 -16.20
6.67115053 0.999862 -23.47 0.015629 68.832 0.015629 68.832 0.998526 -19.87
6.67164905 0.999916 -23.49 0.012146 67.725 0.012146 67.725 0.999109 -21.84
6.67213615 0.999943 -23.51 0.009972 67.033 0.009972 67.033 0.999399 -23.07
6.67261209 0.999958 -23.52 0.008487 66.561 0.008487 66.561 0.999564 -23.91
6.67307712 0.999968 -23.53 0.007408 66.217 0.007408 66.217 0.999668 -24.52
6.67353150 0.999974 -23.53 0.006590 65.956 0.006590 65.956 0.999737 -24.98
6.67397546 0.999978 -23.54 0.005948 65.751 0.005948 65.751 0.999785 -25.34
6.67440925 0.999982 -23.54 0.005431 65.586 0.005431 65.586 0.999821 -25.64
6.67483311 0.999984 -23.55 0.005006 65.449 0.005006 65.449 0.999847 -25.88
6.67524725 0.999986 -23.55 0.004650 65.335 0.004650 65.335 0.999868 -26.08
6.67565190 0.999988 -23.55 0.004348 65.238 0.004348 65.238 0.999884 -26.25
6.67604728 0.999989 -23.56 0.004088 65.154 0.004088 65.154 0.999897 -26.40
6.67643360 0.999990 -23.56 0.003863 65.081 0.003863 65.081 0.999908 -26.53
6.67681106 0.999991 -23.56 0.003666 65.017 0.003666 65.017 0.999917 -26.64
6.67717988 0.999991 -23.56 0.003492 64.961 0.003492 64.961 0.999925 -26.74
6.67754025 0.999992 -23.57 0.003337 64.910 0.003337 64.910 0.999931 -26.83
6.67789236 0.999993 -23.57 0.003198 64.865 0.003198 64.865 0.999937 -26.91
6.67823640 0.999993 -23.57 0.003073 64.824 0.003073 64.824 0.999941 -26.98
6.67857256 0.999993 -23.57 0.002960 64.787 0.002960 64.787 0.999945 -27.05
6.67890101 0.999994 -23.57 0.002857 64.753 0.002857 64.753 0.999949 -27.10
6.67922194 0.999994 -23.58 0.002764 64.722 0.002764 64.722 0.999952 -27.16
6.67953552 0.999994 -23.58 0.002678 64.694 0.002678 64.694 0.999955 -27.21
6.67984191 0.999994 -23.58 0.002599 64.668 0.002599 64.668 0.999957 -27.25
6.68014128 0.999995 -23.58 0.002527 64.643 0.002527 64.643 0.999960 -27.30
6.68043379 0.999995 -23.58 0.002460 64.621 0.002460 64.621 0.999962 -27.33
6.68071960 0.999995 -23.58 0.002397 64.600 0.002397 64.600 0.999963 -27.37
6.68099885 0.999995 -23.58 0.002340 64.581 0.002340 64.581 0.999965 -27.40
6.68127171 0.999995 -23.59 0.002286 64.563 0.002286 64.563 0.999967 -27.44
6.68153832 0.999995 -23.59 0.002235 64.546 0.002235 64.546 0.999968 -27.47
6.68179882 0.999996 -23.59 0.002188 64.530 0.002188 64.530 0.999969 -27.49
6.68205335 0.999996 -23.59 0.002144 64.515 0.002144 64.515 0.999970 -27.52
6.68230205 0.999996 -23.59 0.002103 64.501 0.002103 64.501 0.999971 -27.54
6.68254505 0.999996 -23.59 0.002064 64.487 0.002064 64.487 0.999972 -27.57
6.68278248 0.999996 -23.59 0.002027 64.475 0.002027 64.475 0.999973 -27.59
6.68301447 0.999996 -23.59 0.001992 64.463 0.001992 64.463 0.999974 -27.61
6.68324114 0.999996 -23.59 0.001960 64.452 0.001960 64.452 0.999975 -27.63
6.68346262 0.999996 -23.60 0.001929 64.441 0.001929 64.441 0.999976 -27.65
6.68367903 0.999996 -23.60 0.001900 64.431 0.001900 64.431 0.999976 -27.66
6.68389047 0.999996 -23.60 0.001872 64.421 0.001872 64.421 0.999977 -27.68
6.68409708 0.999996 -23.60 0.001845 64.412 0.001845 64.412 0.999978 -27.70
6.68429894 0.999996 -23.60 0.001820 64.403 0.001820 64.403 0.999978 -27.71
6.68449619 0.999996 -23.60 0.001797 64.395 0.001797 64.395 0.999979 -27.73
6.68468891 0.999996 -23.60 0.001774 64.387 0.001774 64.387 0.999979 -27.74
6.68487722 0.999996 -23.60 0.001752 64.379 0.001752 64.379 0.999980 -27.75
6.68506121 0.999997 -23.60 0.001732 64.372 0.001732 64.372 0.999980 -27.77
6.68524098 0.999997 -23.60 0.001712 64.365 0.001712 64.365 0.999980 -27.78
6.68541664 0.999997 -23.60 0.001693 64.358 0.001693 64.358 0.999981 -27.79
6.68558827 0.999997 -23.60 0.001675 64.352 0.001675 64.352 0.999981 -27.80
6.68575597 0.999997 -23.60 0.001658 64.346 0.001658 64.346 0.999981 -27.81
6.68591983 0.999997 -23.61 0.001641 64.340 0.001641 64.340 0.999982 -27.82
6.68607993 0.999997 -23.61 0.001626 64.334 0.001626 64.334 0.999982 -27.83
6.68623636 0.999997 -23.61 0.001611 64.329 0.001611 64.329 0.999982 -27.84
6.68638921 0.999997 -23.61 0.001596 64.324 0.001596 64.324 0.999983 -27.85
6.68653856 0.999997 -23.61 0.001582 64.319 0.001582 64.319 0.999983 -27.86
6.68668448 0.999997 -23.61 0.001569 64.314 0.001569 64.314 0.999983 -27.86
6.68682706 0.999997 -23.61 0.001556 64.309 0.001556 64.309 0.999983 -27.87
6.68696638 0.999997 -23.61 0.001543 64.305 0.001543 64.305 0.999984 -27.88
6.68710250 0.999997 -23.61 0.001532 64.301 0.001532 64.301 0.999984 -27.89
6.68723550 0.999997 -23.61 0.001520 64.296 0.001520 64.296 0.999984 -27.89
6.68736545 0.999997 -23.61 0.001509 64.292 0.001509 64.292 0.999984 -27.90
6.68749243 0.999997 -23.61 0.001499 64.289 0.001499 64.289 0.999984 -27.91
6.68761650 0.999997 -23.61 0.001488 64.285 0.001488 64.285 0.999985 -27.91
6.68773772 0.999997 -23.61 0.001478 64.281 0.001478 64.281 0.999985 -27.92
6.68785617 0.999997 -23.61 0.001469 64.278 0.001469 64.278 0.999985 -27.93
6.68797190 0.999997 -23.61 0.001460 64.274 0.001460 64.274 0.999985 -27.93
6.68808498 0.999997 -23.61 0.001451 64.271 0.001451 64.271 0.999985 -27.94
6.68819547 0.999997 -23.61 0.001442 64.268 0.001442 64.268 0.999985 -27.94
6.68830343 0.999997 -23.62 0.001434 64.265 0.001434 64.265 0.999986 -27.95
6.68840891 0.999997 -23.62 0.001426 64.262 0.001426 64.262 0.999986 -27.95
6.68851198 0.999997 -23.62 0.001418 64.259 0.001418 64.259 0.999986 -27.96
6.68861269 0.999997 -23.62 0.001411 64.256 0.001411 64.256 0.999986 -27.96
6.68871109 0.999997 -23.62 0.001404 64.254 0.001404 64.254 0.999986 -27.97
6.68880723 0.999997 -23.62 0.001397 64.251 0.001397 64.251 0.999986 -27.97
6.68890117 0.999997 -23.62 0.001390 64.249 0.001390 64.249 0.999986 -27.97
6.68899296 0.999997 -23.62 0.001384 64.246 0.001384 64.246 0.999986 -27.98
6.68908264 0.999997 -23.62 0.001377 64.244 0.001377 64.244 0.999987 -27.98
6.68917027 0.999997 -23.62 0.001371 64.242 0.001371 64.242 0.999987 -27.99
6.68925589 0.999997 -23.62 0.001365 64.239 0.001365 64.239 0.999987 -27.99
6.68933955 0.999997 -23.62 0.001359 64.237 0.001359 64.237 0.999987 -27.99
6.68942130 0.999997 -23.62 0.001354 64.235 0.001354 64.235 0.999987 -28.00
6.68950117 0.999997 -23.62 0.001349 64.233 0.001349 64.233 0.999987 -28.00
6.68957921 0.999997 -23.62 0.001343 64.231 0.001343 64.231 0.999987 -28.00
6.68965546 0.999997 -23.62 0.001338 64.229 0.001338 64.229 0.999987 -28.01
6.68972996 0.999997 -23.62 0.001333 64.227 0.001333 64.227 0.999987 -28.01
6.68980276 0.999997 -23.62 0.001329 64.226 0.001329 64.226 0.999987 -28.01
6.68987389 0.999997 -23.62 0.001324 64.224 0.001324 64.224 0.999987 -28.02
6.68994339 0.999997 -23.62 0.001319 64.222 0.001319 64.222 0.999987 -28.02
6.69001129 0.999997 -23.62 0.001315 64.220 0.001315 64.220 0.999988 -28.02
6.69007764 0.999997 -23.62 0.001311 64.219 0.001311 64.219 0.999988 -28.02
6.69014247 0.999997 -23.62 0.001307 64.217 0.001307 64.217 0.999988 -28.03
6.69020582 0.999997 -23.62 0.001303 64.216 0.001303 64.216 0.999988 -28.03
6.69026771 0.999997 -23.62 0.001299 64.214 0.001299 64.214 0.999988 -28.03
6.69032819 0.999997 -23.62 0.001295 64.213 0.001295 64.213 0.999988 -28.03
6.69038728 0.999997 -23.62 0.001291 64.211 0.001291 64.211 0.999988 -28.04
6.69044501 0.999997 -23.62 0.001288 64.210 0.001288 64.210 0.999988 -28.04
6.69050143 0.999997 -23.62 0.001284 64.209 0.001284 64.209 0.999988 -28.04
6.69055655 0.999997 -23.62 0.001281 64.208 0.001281 64.208 0.999988 -28.04
6.69061040 0.999997 -23.62 0.001278 64.206 0.001278 64.206 0.999988 -28.05
6.69066302 0.999997 -23.62 0.001275 64.205 0.001275 64.205 0.999988 -28.05
6.69071444 0.999997 -23.62 0.001272 64.204 0.001272 64.204 0.999988 -28.05
6.69076468 0.999997 -23.62 0.001269 64.203 0.001269 64.203 0.999988 -28.05
6.69081377 0.999997 -23.63 0.001266 64.202 0.001266 64.202 0.999988 -28.05
6.69086173 0.999997 -23.63 0.001263 64.201 0.001263 64.201 0.999988 -28.05
6.69090860 0.999997 -23.63 0.001260 64.199 0.001260 64.199 0.999988 -28.06
6.69095439 0.999997 -23.63 0.001257 64.198 0.001257 64.198 0.999988 -28.06
6.69099913 0.999997 -23.63 0.001255 64.197 0.001255 64.197 0.999988 -28.06
6.69104284 0.999997 -23.63 0.001252 64.196 0.001252 64.196 0.999989 -28.06
6.69108556 0.999997 -23.63 0.001250 64.195 0.001250 64.195 0.999989 -28.06
6.69112729 0.999997 -23.63 0.001247 64.195 0.001247 64.195 0.999989 -28.06
6.69116807 0.999997 -23.63 0.001245 64.194 0.001245 64.194 0.999989 -28.07
6.69120792 0.999997 -23.63 0.001243 64.193 0.001243 64.193 0.999989 -28.07
6.69124685 0.999997 -23.63 0.001241 64.192 0.001241 64.192 0.999989 -28.07
6.69128489 0.999997 -23.63 0.001238 64.191 0.001238 64.191 0.999989 -28.07
