! Sonnet Data File
! From: emgraph Version : 16.54
! From Project: BusResonator_17
! Data is De-embedded 
! Data File Written: 08/31/2017 18:33:07
!< HDATE 08/31/2017 16:58:22
!< MDATE 08/31/2017 17:03:00
!< PARAMS
!< BusLengthControl = 2100.0
!< END PARAMS
# GHZ S MA R 50.00000
6.00000000 0.999995 -75.05 1.971e-5 39.613 1.971e-5 39.613 0.999998 -25.72
!< P1 F=6.0 Eeff=(6.44857038 -2.9736e-5) Z0=(51.7893065 1.19468e-4) R=0.05083541 C=0.00240605 
!< P2 F=6.0 Eeff=(6.44857038 -2.9736e-5) Z0=(51.7893065 1.19468e-4) R=0.05083541 C=0.00240605 
6.05000000 0.999994 -75.69 2.024e-5 39.174 2.024e-5 39.174 0.999998 -25.94
6.10000000 0.999994 -76.33 2.079e-5 38.736 2.079e-5 38.736 0.999998 -26.16
6.15000000 0.999994 -76.96 2.136e-5 38.300 2.136e-5 38.300 0.999997 -26.38
6.20000000 0.999994 -77.60 2.196e-5 37.866 2.196e-5 37.866 0.999997 -26.60
6.25000000 0.999994 -78.24 2.258e-5 37.432 2.258e-5 37.432 0.999997 -26.82
6.30000000 0.999994 -78.87 2.324e-5 36.999 2.324e-5 36.999 0.999997 -27.04
6.35000000 0.999993 -79.51 2.392e-5 36.567 2.392e-5 36.567 0.999997 -27.26
6.40000000 0.999993 -80.15 2.463e-5 36.136 2.463e-5 36.136 0.999997 -27.48
6.45000000 0.999993 -80.79 2.538e-5 35.706 2.538e-5 35.706 0.999997 -27.70
6.50000000 0.999993 -81.43 2.617e-5 35.275 2.617e-5 35.275 0.999997 -27.92
6.55000000 0.999993 -82.07 2.700e-5 34.846 2.700e-5 34.846 0.999997 -28.15
6.60000000 0.999993 -82.71 2.787e-5 34.416 2.787e-5 34.416 0.999997 -28.37
6.65000000 0.999993 -83.35 2.879e-5 33.987 2.879e-5 33.987 0.999997 -28.59
6.70000000 0.999993 -83.98 2.976e-5 33.558 2.976e-5 33.558 0.999997 -28.81
6.75000000 0.999993 -84.62 3.079e-5 33.128 3.079e-5 33.128 0.999997 -29.04
6.80000000 0.999993 -85.26 3.189e-5 32.699 3.189e-5 32.699 0.999997 -29.26
6.85000000 0.999993 -85.91 3.305e-5 32.269 3.305e-5 32.269 0.999997 -29.48
6.90000000 0.999994 -86.55 3.430e-5 31.840 3.430e-5 31.840 0.999997 -29.71
6.95000000 0.999994 -87.19 3.563e-5 31.410 3.563e-5 31.410 0.999997 -29.93
7.00000000 0.999994 -87.83 3.707e-5 30.980 3.707e-5 30.980 0.999997 -30.16
7.05000000 0.999994 -88.47 3.861e-5 30.549 3.861e-5 30.549 0.999997 -30.38
7.10000000 0.999994 -89.11 4.029e-5 30.118 4.029e-5 30.118 0.999997 -30.61
7.15000000 0.999994 -89.75 4.212e-5 29.687 4.212e-5 29.687 0.999997 -30.83
7.20000000 0.999994 -90.39 4.413e-5 29.255 4.413e-5 29.255 0.999997 -31.06
7.25000000 0.999994 -91.04 4.635e-5 28.822 4.635e-5 28.822 0.999997 -31.28
7.30000000 0.999994 -91.68 4.882e-5 28.390 4.882e-5 28.390 0.999997 -31.51
7.35000000 0.999994 -92.32 5.160e-5 27.956 5.160e-5 27.956 0.999997 -31.74
7.40000000 0.999994 -92.97 5.476e-5 27.522 5.476e-5 27.522 0.999997 -31.97
7.45000000 0.999994 -93.61 5.840e-5 27.088 5.840e-5 27.088 0.999997 -32.20
7.50000000 0.999994 -94.25 6.266e-5 26.652 6.266e-5 26.652 0.999997 -32.43
7.55000000 0.999994 -94.90 6.775e-5 26.217 6.775e-5 26.217 0.999997 -32.66
7.60000000 0.999994 -95.54 7.399e-5 25.780 7.399e-5 25.780 0.999997 -32.89
7.65000000 0.999994 -96.19 8.186e-5 25.343 8.186e-5 25.343 0.999997 -33.12
7.70000000 0.999994 -96.83 9.223e-5 24.905 9.223e-5 24.905 0.999997 -33.35
7.75000000 0.999994 -97.47 1.067e-4 24.465 1.067e-4 24.465 0.999997 -33.58
7.80000000 0.999994 -98.12 1.284e-4 24.024 1.284e-4 24.024 0.999997 -33.82
7.80590388 0.999994 -98.20 1.318e-4 23.972 1.318e-4 23.972 0.999997 -33.85
7.81167248 0.999994 -98.27 1.352e-4 23.921 1.352e-4 23.921 0.999997 -33.88
7.81730890 0.999994 -98.34 1.389e-4 23.871 1.389e-4 23.871 0.999997 -33.90
7.82281617 0.999994 -98.42 1.426e-4 23.822 1.426e-4 23.822 0.999997 -33.93
7.82819724 0.999994 -98.48 1.466e-4 23.774 1.466e-4 23.774 0.999997 -33.95
7.83345502 0.999994 -98.55 1.507e-4 23.727 1.507e-4 23.727 0.999997 -33.98
7.83859232 0.999994 -98.62 1.550e-4 23.682 1.550e-4 23.682 0.999997 -34.00
7.84361190 0.999994 -98.68 1.595e-4 23.637 1.595e-4 23.637 0.999997 -34.03
7.84851647 0.999994 -98.75 1.642e-4 23.593 1.642e-4 23.593 0.999997 -34.05
7.85000000 0.999994 -98.77 1.657e-4 23.580 1.657e-4 23.580 0.999997 -34.06
7.85330866 0.999994 -98.81 1.691e-4 23.550 1.691e-4 23.550 0.999997 -34.08
7.85799103 0.999994 -98.87 1.743e-4 23.508 1.743e-4 23.508 0.999997 -34.10
7.86256612 0.999994 -98.93 1.797e-4 23.467 1.797e-4 23.467 0.999997 -34.12
7.86703637 0.999994 -98.99 1.854e-4 23.427 1.854e-4 23.427 0.999997 -34.14
7.87140420 0.999994 -99.04 1.915e-4 23.388 1.915e-4 23.388 0.999997 -34.16
7.87567194 0.999994 -99.10 1.978e-4 23.350 1.978e-4 23.350 0.999997 -34.19
7.87984189 0.999994 -99.15 2.045e-4 23.312 2.045e-4 23.312 0.999997 -34.21
7.88391629 0.999994 -99.21 2.115e-4 23.275 2.115e-4 23.275 0.999997 -34.23
7.88789733 0.999994 -99.26 2.190e-4 23.239 2.190e-4 23.239 0.999997 -34.25
7.89178715 0.999994 -99.31 2.269e-4 23.204 2.269e-4 23.204 0.999997 -34.27
7.89558784 0.999994 -99.36 2.353e-4 23.169 2.353e-4 23.169 0.999997 -34.28
7.89930144 0.999994 -99.40 2.442e-4 23.135 2.442e-4 23.135 0.999997 -34.30
7.90000000 0.999994 -99.41 2.460e-4 23.129 2.460e-4 23.129 0.999997 -34.31
7.90292995 0.999994 -99.45 2.537e-4 23.102 2.537e-4 23.102 0.999997 -34.32
7.90647531 0.999994 -99.50 2.638e-4 23.069 2.638e-4 23.069 0.999997 -34.34
7.90993944 0.999994 -99.54 2.746e-4 23.037 2.746e-4 23.037 0.999997 -34.36
7.91332419 0.999994 -99.59 2.862e-4 23.005 2.862e-4 23.005 0.999997 -34.38
7.91663139 0.999994 -99.63 2.986e-4 22.974 2.986e-4 22.974 0.999997 -34.39
7.91986280 0.999994 -99.67 3.120e-4 22.944 3.120e-4 22.944 0.999997 -34.41
7.92302017 0.999994 -99.71 3.264e-4 22.914 3.264e-4 22.914 0.999997 -34.43
7.92610520 0.999994 -99.75 3.420e-4 22.884 3.420e-4 22.884 0.999997 -34.45
7.92911953 0.999993 -99.79 3.589e-4 22.855 3.589e-4 22.855 0.999997 -34.46
7.93206479 0.999993 -99.83 3.773e-4 22.827 3.773e-4 22.827 0.999997 -34.48
7.93494257 0.999993 -99.87 3.974e-4 22.798 3.974e-4 22.798 0.999997 -34.50
7.93775440 0.999993 -99.90 4.194e-4 22.770 4.194e-4 22.770 0.999997 -34.51
7.94050181 0.999993 -99.94 4.437e-4 22.742 4.437e-4 22.742 0.999997 -34.53
7.94318626 0.999993 -99.98 4.705e-4 22.715 4.705e-4 22.715 0.999997 -34.55
7.94580920 0.999993 -100.0 5.003e-4 22.687 5.003e-4 22.687 0.999996 -34.56
7.94837204 0.999993 -100.0 5.336e-4 22.659 5.336e-4 22.659 0.999996 -34.58
7.95000000 0.999993 -100.1 5.574e-4 22.641 5.574e-4 22.641 0.999996 -34.59
7.95087616 0.999993 -100.1 5.711e-4 22.632 5.711e-4 22.632 0.999996 -34.60
7.95332290 0.999993 -100.1 6.136e-4 22.604 6.136e-4 22.604 0.999996 -34.62
7.95571357 0.999993 -100.1 6.622e-4 22.575 6.622e-4 22.575 0.999996 -34.64
7.95804946 0.999993 -100.2 7.182e-4 22.546 7.182e-4 22.546 0.999996 -34.66
7.96033183 0.999993 -100.2 7.834e-4 22.516 7.834e-4 22.516 0.999995 -34.68
7.96256190 0.999993 -100.2 8.604e-4 22.485 8.604e-4 22.485 0.999995 -34.70
7.96474087 0.999993 -100.3 9.527e-4 22.451 9.527e-4 22.451 0.999994 -34.73
7.96686992 0.999993 -100.3 0.001065 22.415 0.001065 22.415 0.999993 -34.76
7.96895018 0.999992 -100.3 0.001205 22.376 0.001205 22.376 0.999992 -34.79
7.97098277 0.999992 -100.4 0.001384 22.330 0.001384 22.330 0.999991 -34.83
7.97296879 0.999991 -100.4 0.001622 22.277 0.001622 22.277 0.999988 -34.88
7.97490930 0.999990 -100.4 0.001951 22.209 0.001951 22.209 0.999984 -34.95
7.97680534 0.999989 -100.4 0.002439 22.118 0.002439 22.118 0.999977 -35.04
7.97865795 0.999985 -100.5 0.003235 21.980 0.003235 21.980 0.999961 -35.18
7.98046810 0.999975 -100.5 0.004764 21.731 0.004764 21.731 0.999918 -35.45
7.98223677 0.999927 -100.6 0.008907 21.082 0.008907 21.082 0.999720 -36.16
7.98396492 0.996848 -101.7 0.060973 13.072 0.060973 13.072 0.986864 -45.03
7.98565346 0.999856 -100.3 0.012763 -155.6 0.012763 -155.6 0.999423 -32.51
7.98730332 0.999965 -100.4 0.005839 -156.7 0.005839 -156.7 0.999876 -33.69
7.98891537 0.999981 -100.5 0.003807 -157.0 0.003807 -157.0 0.999946 -34.04
7.99049049 0.999987 -100.5 0.002836 -157.2 0.002836 -157.2 0.999968 -34.21
7.99202951 0.999989 -100.6 0.002268 -157.3 0.002268 -157.3 0.999979 -34.31
7.99353327 0.999990 -100.6 0.001895 -157.4 0.001895 -157.4 0.999984 -34.38
7.99500257 0.999991 -100.6 0.001631 -157.4 0.001631 -157.4 0.999988 -34.44
7.99643820 0.999992 -100.6 0.001434 -157.5 0.001434 -157.5 0.999990 -34.48
7.99784094 0.999992 -100.6 0.001282 -157.5 0.001282 -157.5 0.999991 -34.51
7.99921154 0.999992 -100.7 0.001162 -157.5 0.001162 -157.5 0.999992 -34.53
8.00000000 0.999993 -100.7 0.001102 -157.5 0.001102 -157.5 0.999993 -34.55
8.00055073 0.999993 -100.7 0.001063 -157.6 0.001063 -157.6 0.999993 -34.56
8.00185923 0.999993 -100.7 9.815e-4 -157.6 9.815e-4 -157.6 0.999994 -34.58
8.00313775 0.999993 -100.7 9.126e-4 -157.6 9.126e-4 -157.6 0.999994 -34.60
8.00438698 0.999993 -100.7 8.537e-4 -157.6 8.537e-4 -157.6 0.999994 -34.61
8.00560758 0.999993 -100.8 8.028e-4 -157.6 8.028e-4 -157.6 0.999995 -34.63
8.00680021 0.999993 -100.8 7.584e-4 -157.7 7.584e-4 -157.7 0.999995 -34.64
8.00796552 0.999993 -100.8 7.193e-4 -157.7 7.193e-4 -157.7 0.999995 -34.65
8.00910412 0.999993 -100.8 6.847e-4 -157.7 6.847e-4 -157.7 0.999995 -34.66
8.01021663 0.999993 -100.8 6.538e-4 -157.7 6.538e-4 -157.7 0.999996 -34.67
8.01130366 0.999993 -100.8 6.261e-4 -157.7 6.261e-4 -157.7 0.999996 -34.68
8.01236577 0.999993 -100.8 6.010e-4 -157.7 6.010e-4 -157.7 0.999996 -34.69
8.01340355 0.999993 -100.9 5.783e-4 -157.7 5.783e-4 -157.7 0.999996 -34.70
8.01441754 0.999993 -100.9 5.576e-4 -157.8 5.576e-4 -157.8 0.999996 -34.71
8.01540831 0.999993 -100.9 5.387e-4 -157.8 5.387e-4 -157.8 0.999996 -34.72
8.01637637 0.999993 -100.9 5.214e-4 -157.8 5.214e-4 -157.8 0.999996 -34.72
8.01732225 0.999993 -100.9 5.054e-4 -157.8 5.054e-4 -157.8 0.999996 -34.73
8.01824645 0.999993 -100.9 4.906e-4 -157.8 4.906e-4 -157.8 0.999996 -34.74
8.01914948 0.999993 -100.9 4.770e-4 -157.8 4.770e-4 -157.8 0.999996 -34.74
8.02003182 0.999993 -101.0 4.643e-4 -157.8 4.643e-4 -157.8 0.999996 -34.75
8.02089394 0.999993 -101.0 4.525e-4 -157.8 4.525e-4 -157.8 0.999996 -34.76
8.02173630 0.999993 -101.0 4.415e-4 -157.8 4.415e-4 -157.8 0.999996 -34.76
8.02255936 0.999993 -101.0 4.312e-4 -157.8 4.312e-4 -157.8 0.999996 -34.77
8.02336357 0.999993 -101.0 4.216e-4 -157.9 4.216e-4 -157.9 0.999996 -34.77
8.02414934 0.999993 -101.0 4.125e-4 -157.9 4.125e-4 -157.9 0.999996 -34.78
8.02491711 0.999993 -101.0 4.040e-4 -157.9 4.040e-4 -157.9 0.999997 -34.78
8.02566729 0.999993 -101.0 3.960e-4 -157.9 3.960e-4 -157.9 0.999997 -34.79
8.02640028 0.999993 -101.0 3.885e-4 -157.9 3.885e-4 -157.9 0.999997 -34.79
8.02711647 0.999993 -101.0 3.814e-4 -157.9 3.814e-4 -157.9 0.999997 -34.80
8.02781625 0.999993 -101.1 3.747e-4 -157.9 3.747e-4 -157.9 0.999997 -34.80
8.02850000 0.999993 -101.1 3.683e-4 -157.9 3.683e-4 -157.9 0.999997 -34.81
8.02916808 0.999993 -101.1 3.622e-4 -157.9 3.622e-4 -157.9 0.999997 -34.81
8.02982085 0.999993 -101.1 3.565e-4 -157.9 3.565e-4 -157.9 0.999997 -34.82
8.03045867 0.999993 -101.1 3.511e-4 -157.9 3.511e-4 -157.9 0.999997 -34.82
8.03108187 0.999993 -101.1 3.459e-4 -157.9 3.459e-4 -157.9 0.999997 -34.82
8.03169079 0.999993 -101.1 3.410e-4 -157.9 3.410e-4 -157.9 0.999997 -34.83
8.03228576 0.999993 -101.1 3.363e-4 -157.9 3.363e-4 -157.9 0.999997 -34.83
8.03286709 0.999993 -101.1 3.318e-4 -158.0 3.318e-4 -158.0 0.999997 -34.83
8.03343511 0.999993 -101.1 3.275e-4 -158.0 3.275e-4 -158.0 0.999997 -34.84
8.03399010 0.999993 -101.1 3.235e-4 -158.0 3.235e-4 -158.0 0.999997 -34.84
8.03453239 0.999993 -101.1 3.196e-4 -158.0 3.196e-4 -158.0 0.999997 -34.84
8.03506224 0.999993 -101.1 3.158e-4 -158.0 3.158e-4 -158.0 0.999997 -34.85
8.03557996 0.999993 -101.2 3.123e-4 -158.0 3.123e-4 -158.0 0.999997 -34.85
8.03608581 0.999993 -101.2 3.088e-4 -158.0 3.088e-4 -158.0 0.999997 -34.85
8.03658007 0.999993 -101.2 3.056e-4 -158.0 3.056e-4 -158.0 0.999997 -34.86
8.03706301 0.999993 -101.2 3.024e-4 -158.0 3.024e-4 -158.0 0.999997 -34.86
8.03753488 0.999993 -101.2 2.994e-4 -158.0 2.994e-4 -158.0 0.999997 -34.86
8.03799593 0.999993 -101.2 2.965e-4 -158.0 2.965e-4 -158.0 0.999997 -34.86
8.03844643 0.999993 -101.2 2.937e-4 -158.0 2.937e-4 -158.0 0.999997 -34.87
8.03888660 0.999993 -101.2 2.911e-4 -158.0 2.911e-4 -158.0 0.999997 -34.87
8.03931668 0.999993 -101.2 2.885e-4 -158.0 2.885e-4 -158.0 0.999997 -34.87
8.03973691 0.999993 -101.2 2.860e-4 -158.0 2.860e-4 -158.0 0.999997 -34.87
8.04014751 0.999993 -101.2 2.836e-4 -158.0 2.836e-4 -158.0 0.999997 -34.88
8.04054870 0.999993 -101.2 2.813e-4 -158.0 2.813e-4 -158.0 0.999997 -34.88
8.04094070 0.999993 -101.2 2.791e-4 -158.0 2.791e-4 -158.0 0.999997 -34.88
8.04132372 0.999993 -101.2 2.770e-4 -158.0 2.770e-4 -158.0 0.999997 -34.88
8.04169796 0.999993 -101.2 2.749e-4 -158.0 2.749e-4 -158.0 0.999997 -34.89
8.04206362 0.999993 -101.2 2.730e-4 -158.0 2.730e-4 -158.0 0.999997 -34.89
8.04242091 0.999993 -101.2 2.711e-4 -158.0 2.711e-4 -158.0 0.999997 -34.89
8.04277001 0.999993 -101.2 2.692e-4 -158.0 2.692e-4 -158.0 0.999997 -34.89
8.04311111 0.999993 -101.3 2.674e-4 -158.1 2.674e-4 -158.1 0.999997 -34.89
8.04344440 0.999993 -101.3 2.657e-4 -158.1 2.657e-4 -158.1 0.999997 -34.90
8.04377004 0.999993 -101.3 2.640e-4 -158.1 2.640e-4 -158.1 0.999997 -34.90
8.04408823 0.999993 -101.3 2.624e-4 -158.1 2.624e-4 -158.1 0.999997 -34.90
8.04439913 0.999993 -101.3 2.609e-4 -158.1 2.609e-4 -158.1 0.999997 -34.90
8.04470290 0.999993 -101.3 2.594e-4 -158.1 2.594e-4 -158.1 0.999997 -34.90
8.04499971 0.999993 -101.3 2.579e-4 -158.1 2.579e-4 -158.1 0.999997 -34.90
8.04528972 0.999993 -101.3 2.565e-4 -158.1 2.565e-4 -158.1 0.999997 -34.91
8.04557308 0.999993 -101.3 2.551e-4 -158.1 2.551e-4 -158.1 0.999997 -34.91
8.04584995 0.999993 -101.3 2.538e-4 -158.1 2.538e-4 -158.1 0.999997 -34.91
8.04612048 0.999993 -101.3 2.525e-4 -158.1 2.525e-4 -158.1 0.999997 -34.91
8.04638481 0.999993 -101.3 2.513e-4 -158.1 2.513e-4 -158.1 0.999997 -34.91
8.04664308 0.999993 -101.3 2.501e-4 -158.1 2.501e-4 -158.1 0.999997 -34.91
8.04689544 0.999993 -101.3 2.489e-4 -158.1 2.489e-4 -158.1 0.999997 -34.91
8.04714201 0.999993 -101.3 2.478e-4 -158.1 2.478e-4 -158.1 0.999997 -34.92
8.04738293 0.999993 -101.3 2.467e-4 -158.1 2.467e-4 -158.1 0.999997 -34.92
8.04761833 0.999993 -101.3 2.457e-4 -158.1 2.457e-4 -158.1 0.999997 -34.92
8.04784834 0.999993 -101.3 2.446e-4 -158.1 2.446e-4 -158.1 0.999997 -34.92
8.04807308 0.999993 -101.3 2.436e-4 -158.1 2.436e-4 -158.1 0.999997 -34.92
8.04829266 0.999993 -101.3 2.427e-4 -158.1 2.427e-4 -158.1 0.999997 -34.92
8.04850722 0.999993 -101.3 2.417e-4 -158.1 2.417e-4 -158.1 0.999997 -34.92
8.04871686 0.999993 -101.3 2.408e-4 -158.1 2.408e-4 -158.1 0.999997 -34.92
8.04892169 0.999993 -101.3 2.399e-4 -158.1 2.399e-4 -158.1 0.999997 -34.93
8.04912184 0.999993 -101.3 2.391e-4 -158.1 2.391e-4 -158.1 0.999997 -34.93
8.04931739 0.999993 -101.3 2.382e-4 -158.1 2.382e-4 -158.1 0.999997 -34.93
8.04950847 0.999993 -101.3 2.374e-4 -158.1 2.374e-4 -158.1 0.999997 -34.93
8.04969516 0.999993 -101.3 2.366e-4 -158.1 2.366e-4 -158.1 0.999997 -34.93
8.04987758 0.999993 -101.3 2.359e-4 -158.1 2.359e-4 -158.1 0.999997 -34.93
8.05000000 0.999993 -101.3 2.354e-4 -158.1 2.354e-4 -158.1 0.999997 -34.93
!< P1 F=8.05 Eeff=(6.44737721 -2.9725e-5) Z0=(51.7835829 1.19485e-4) R=0.03789882 C=0.00240602 
!< P2 F=8.05 Eeff=(6.44737721 -2.9725e-5) Z0=(51.7835829 1.19485e-4) R=0.03789882 C=0.00240602 
8.05005582 0.999993 -101.3 2.351e-4 -158.1 2.351e-4 -158.1 0.999997 -34.93
8.05022998 0.999993 -101.3 2.344e-4 -158.1 2.344e-4 -158.1 0.999997 -34.93
8.05040014 0.999993 -101.3 2.337e-4 -158.1 2.337e-4 -158.1 0.999997 -34.93
8.05056641 0.999993 -101.3 2.330e-4 -158.1 2.330e-4 -158.1 0.999997 -34.93
8.05072886 0.999993 -101.4 2.324e-4 -158.1 2.324e-4 -158.1 0.999997 -34.94
8.05088760 0.999993 -101.4 2.317e-4 -158.1 2.317e-4 -158.1 0.999997 -34.94
8.05104269 0.999993 -101.4 2.311e-4 -158.1 2.311e-4 -158.1 0.999997 -34.94
8.05119424 0.999993 -101.4 2.305e-4 -158.1 2.305e-4 -158.1 0.999997 -34.94
8.05134231 0.999993 -101.4 2.299e-4 -158.1 2.299e-4 -158.1 0.999997 -34.94
8.05148698 0.999993 -101.4 2.293e-4 -158.1 2.293e-4 -158.1 0.999997 -34.94
8.05162834 0.999993 -101.4 2.287e-4 -158.1 2.287e-4 -158.1 0.999997 -34.94
8.05176647 0.999993 -101.4 2.282e-4 -158.1 2.282e-4 -158.1 0.999997 -34.94
8.05190142 0.999993 -101.4 2.277e-4 -158.1 2.277e-4 -158.1 0.999997 -34.94
8.05203329 0.999993 -101.4 2.271e-4 -158.1 2.271e-4 -158.1 0.999997 -34.94
8.05216213 0.999993 -101.4 2.266e-4 -158.1 2.266e-4 -158.1 0.999997 -34.94
8.05228803 0.999993 -101.4 2.261e-4 -158.1 2.261e-4 -158.1 0.999997 -34.94
8.05241103 0.999993 -101.4 2.257e-4 -158.1 2.257e-4 -158.1 0.999997 -34.94
8.05253122 0.999993 -101.4 2.252e-4 -158.1 2.252e-4 -158.1 0.999997 -34.95
8.05264865 0.999993 -101.4 2.247e-4 -158.1 2.247e-4 -158.1 0.999997 -34.95
8.05276340 0.999993 -101.4 2.243e-4 -158.1 2.243e-4 -158.1 0.999997 -34.95
8.05287551 0.999993 -101.4 2.239e-4 -158.1 2.239e-4 -158.1 0.999997 -34.95
8.05298506 0.999993 -101.4 2.235e-4 -158.1 2.235e-4 -158.1 0.999997 -34.95
8.05309209 0.999993 -101.4 2.230e-4 -158.1 2.230e-4 -158.1 0.999997 -34.95
8.05319668 0.999993 -101.4 2.226e-4 -158.1 2.226e-4 -158.1 0.999997 -34.95
8.05329886 0.999993 -101.4 2.223e-4 -158.1 2.223e-4 -158.1 0.999997 -34.95
8.05339871 0.999993 -101.4 2.219e-4 -158.2 2.219e-4 -158.2 0.999997 -34.95
8.05349626 0.999993 -101.4 2.215e-4 -158.2 2.215e-4 -158.2 0.999997 -34.95
8.05359159 0.999993 -101.4 2.212e-4 -158.2 2.212e-4 -158.2 0.999997 -34.95
8.05368472 0.999993 -101.4 2.208e-4 -158.2 2.208e-4 -158.2 0.999997 -34.95
8.05377573 0.999993 -101.4 2.205e-4 -158.2 2.205e-4 -158.2 0.999997 -34.95
8.05386464 0.999993 -101.4 2.201e-4 -158.2 2.201e-4 -158.2 0.999997 -34.95
8.05395152 0.999993 -101.4 2.198e-4 -158.2 2.198e-4 -158.2 0.999997 -34.95
8.05403641 0.999993 -101.4 2.195e-4 -158.2 2.195e-4 -158.2 0.999997 -34.95
8.05411936 0.999993 -101.4 2.192e-4 -158.2 2.192e-4 -158.2 0.999997 -34.95
8.05420040 0.999993 -101.4 2.189e-4 -158.2 2.189e-4 -158.2 0.999997 -34.95
8.05427959 0.999993 -101.4 2.186e-4 -158.2 2.186e-4 -158.2 0.999997 -34.95
8.05435696 0.999993 -101.4 2.183e-4 -158.2 2.183e-4 -158.2 0.999997 -34.95
8.05443256 0.999993 -101.4 2.180e-4 -158.2 2.180e-4 -158.2 0.999997 -34.96
8.05450643 0.999993 -101.4 2.178e-4 -158.2 2.178e-4 -158.2 0.999997 -34.96
8.05457861 0.999993 -101.4 2.175e-4 -158.2 2.175e-4 -158.2 0.999997 -34.96
8.05464913 0.999993 -101.4 2.173e-4 -158.2 2.173e-4 -158.2 0.999997 -34.96
8.05471803 0.999993 -101.4 2.170e-4 -158.2 2.170e-4 -158.2 0.999997 -34.96
8.05478536 0.999993 -101.4 2.168e-4 -158.2 2.168e-4 -158.2 0.999997 -34.96
8.05485114 0.999993 -101.4 2.165e-4 -158.2 2.165e-4 -158.2 0.999997 -34.96
8.05491542 0.999993 -101.4 2.163e-4 -158.2 2.163e-4 -158.2 0.999997 -34.96
8.05497822 0.999993 -101.4 2.161e-4 -158.2 2.161e-4 -158.2 0.999997 -34.96
8.05503959 0.999993 -101.4 2.158e-4 -158.2 2.158e-4 -158.2 0.999997 -34.96
8.05509954 0.999993 -101.4 2.156e-4 -158.2 2.156e-4 -158.2 0.999997 -34.96
8.05515813 0.999993 -101.4 2.154e-4 -158.2 2.154e-4 -158.2 0.999997 -34.96
8.05521537 0.999993 -101.4 2.152e-4 -158.2 2.152e-4 -158.2 0.999997 -34.96
8.05527130 0.999993 -101.4 2.150e-4 -158.2 2.150e-4 -158.2 0.999997 -34.96
8.05532595 0.999993 -101.4 2.148e-4 -158.2 2.148e-4 -158.2 0.999997 -34.96
8.05537935 0.999993 -101.4 2.146e-4 -158.2 2.146e-4 -158.2 0.999997 -34.96
8.05543152 0.999993 -101.4 2.144e-4 -158.2 2.144e-4 -158.2 0.999997 -34.96
8.05548250 0.999993 -101.4 2.143e-4 -158.2 2.143e-4 -158.2 0.999997 -34.96
8.05553231 0.999993 -101.4 2.141e-4 -158.2 2.141e-4 -158.2 0.999997 -34.96
8.05558097 0.999993 -101.4 2.139e-4 -158.2 2.139e-4 -158.2 0.999997 -34.96
8.05562853 0.999993 -101.4 2.137e-4 -158.2 2.137e-4 -158.2 0.999997 -34.96
8.05567499 0.999993 -101.4 2.136e-4 -158.2 2.136e-4 -158.2 0.999997 -34.96
8.05572039 0.999993 -101.4 2.134e-4 -158.2 2.134e-4 -158.2 0.999997 -34.96
8.05576475 0.999993 -101.4 2.133e-4 -158.2 2.133e-4 -158.2 0.999997 -34.96
