! Sonnet Data File
! From: emgraph Version : 16.54
! From Project: BusResonator_17
! Data is De-embedded 
! Data File Written: 08/31/2017 18:33:07
!< HDATE 08/31/2017 16:58:22
!< MDATE 08/31/2017 17:03:00
!< PARAMS
!< BusLengthControl = 3600.0
!< END PARAMS
# GHZ S MA R 50.00000
6.00000000 0.999993 -130.1 3.447e-5 -167.9 3.447e-5 -167.9 0.999998 -25.71
!< P1 F=6.0 Eeff=(6.44857038 -2.9736e-5) Z0=(51.7893065 1.19468e-4) R=0.05083541 C=0.00240605 
!< P2 F=6.0 Eeff=(6.44857038 -2.9736e-5) Z0=(51.7893065 1.19468e-4) R=0.05083541 C=0.00240605 
6.05000000 0.999993 -131.2 3.488e-5 -168.6 3.488e-5 -168.6 0.999998 -25.93
6.10000000 0.999993 -132.3 3.530e-5 -169.2 3.530e-5 -169.2 0.999998 -26.15
6.15000000 0.999993 -133.4 3.571e-5 -169.9 3.571e-5 -169.9 0.999998 -26.37
6.20000000 0.999993 -134.5 3.612e-5 -170.6 3.612e-5 -170.6 0.999998 -26.59
6.25000000 0.999993 -135.7 3.652e-5 -171.2 3.652e-5 -171.2 0.999998 -26.81
6.30000000 0.999993 -136.8 3.692e-5 -171.9 3.692e-5 -171.9 0.999998 -27.03
6.35000000 0.999993 -137.9 3.731e-5 -172.6 3.731e-5 -172.6 0.999998 -27.25
6.40000000 0.999993 -139.0 3.770e-5 -173.3 3.770e-5 -173.3 0.999998 -27.48
6.45000000 0.999993 -140.2 3.807e-5 -173.9 3.807e-5 -173.9 0.999998 -27.70
6.50000000 0.999993 -141.3 3.844e-5 -174.6 3.844e-5 -174.6 0.999998 -27.92
6.55000000 0.999993 -142.4 3.879e-5 -175.3 3.879e-5 -175.3 0.999998 -28.14
6.60000000 0.999993 -143.6 3.913e-5 -176.0 3.913e-5 -176.0 0.999998 -28.36
6.65000000 0.999993 -144.7 3.946e-5 -176.6 3.946e-5 -176.6 0.999998 -28.58
6.70000000 0.999993 -145.8 3.977e-5 -177.3 3.977e-5 -177.3 0.999998 -28.81
6.75000000 0.999993 -146.9 4.007e-5 -178.0 4.007e-5 -178.0 0.999998 -29.03
6.80000000 0.999993 -148.1 4.034e-5 -178.7 4.034e-5 -178.7 0.999998 -29.25
6.85000000 0.999993 -149.2 4.059e-5 -179.3 4.059e-5 -179.3 0.999998 -29.47
6.90000000 0.999993 -150.3 4.082e-5 179.99 4.082e-5 179.99 0.999998 -29.70
6.95000000 0.999993 -151.5 4.101e-5 179.31 4.101e-5 179.31 0.999998 -29.92
7.00000000 0.999993 -152.6 4.118e-5 178.63 4.118e-5 178.63 0.999998 -30.15
7.05000000 0.999993 -153.7 4.131e-5 177.96 4.131e-5 177.96 0.999998 -30.37
7.10000000 0.999993 -154.9 4.141e-5 177.28 4.141e-5 177.28 0.999998 -30.59
7.15000000 0.999993 -156.0 4.146e-5 176.60 4.146e-5 176.60 0.999998 -30.82
7.20000000 0.999993 -157.1 4.146e-5 175.92 4.146e-5 175.92 0.999998 -31.05
7.25000000 0.999993 -158.2 4.141e-5 175.24 4.141e-5 175.24 0.999997 -31.27
7.30000000 0.999993 -159.4 4.130e-5 174.56 4.130e-5 174.56 0.999997 -31.50
!< P1 F=7.3 Eeff=(6.44785421 -2.9729e-5) Z0=(51.7859155 1.19478e-4) R=0.04179126 C=0.00240602 
!< P2 F=7.3 Eeff=(6.44785421 -2.9729e-5) Z0=(51.7859155 1.19478e-4) R=0.04179126 C=0.00240602 
7.35000000 0.999993 -160.5 4.112e-5 173.88 4.112e-5 173.88 0.999997 -31.73
7.40000000 0.999993 -161.6 4.088e-5 173.20 4.088e-5 173.20 0.999997 -31.95
7.45000000 0.999993 -162.8 4.055e-5 172.52 4.055e-5 172.52 0.999997 -32.18
7.50000000 0.999993 -163.9 4.013e-5 171.84 4.013e-5 171.84 0.999997 -32.41
7.55000000 0.999992 -165.0 3.961e-5 171.16 3.961e-5 171.16 0.999997 -32.64
7.60000000 0.999992 -166.2 3.899e-5 170.47 3.899e-5 170.47 0.999997 -32.87
7.65000000 0.999992 -167.3 3.823e-5 169.79 3.823e-5 169.79 0.999997 -33.10
7.70000000 0.999992 -168.4 3.735e-5 169.11 3.735e-5 169.11 0.999997 -33.33
7.75000000 0.999992 -169.6 3.630e-5 168.43 3.630e-5 168.43 0.999997 -33.56
7.80000000 0.999992 -170.7 3.509e-5 167.74 3.509e-5 167.74 0.999997 -33.79
7.85000000 0.999992 -171.9 3.369e-5 167.06 3.369e-5 167.06 0.999997 -34.03
7.90000000 0.999992 -173.0 3.207e-5 166.38 3.207e-5 166.38 0.999997 -34.26
7.95000000 0.999992 -174.1 3.022e-5 165.69 3.022e-5 165.69 0.999997 -34.49
8.00000000 0.999992 -175.3 2.809e-5 165.01 2.809e-5 165.01 0.999997 -34.73
8.05000000 0.999992 -176.4 2.566e-5 164.32 2.566e-5 164.32 0.999997 -34.97
8.10000000 0.999992 -177.5 2.289e-5 163.64 2.289e-5 163.64 0.999997 -35.20
8.15000000 0.999992 -178.7 1.973e-5 162.95 1.973e-5 162.95 0.999997 -35.44
8.20000000 0.999992 -179.8 1.614e-5 162.26 1.614e-5 162.26 0.999997 -35.68
8.25000000 0.999992 179.07 1.205e-5 161.58 1.205e-5 161.58 0.999997 -35.92
8.30000000 0.999992 177.94 7.401e-6 160.90 7.401e-6 160.90 0.999997 -36.17
8.35000000 0.999992 176.80 2.105e-6 160.24 2.105e-6 160.24 0.999997 -36.41
8.40000000 0.999992 175.67 3.928e-6 -20.52 3.928e-6 -20.52 0.999997 -36.65
8.45000000 0.999992 174.53 1.081e-5 -21.20 1.081e-5 -21.20 0.999997 -36.90
8.50000000 0.999993 173.40 1.867e-5 -21.88 1.867e-5 -21.88 0.999997 -37.15
!< P1 F=8.5 Eeff=(6.44706879 -2.9722e-5) Z0=(51.782038 1.19489e-4) R=0.03589207 C=0.002406 
!< P2 F=8.5 Eeff=(6.44706879 -2.9722e-5) Z0=(51.782038 1.19489e-4) R=0.03589207 C=0.002406 
8.55000000 0.999993 172.26 2.766e-5 -22.58 2.766e-5 -22.58 0.999997 -37.40
8.60000000 0.999993 171.13 3.797e-5 -23.27 3.797e-5 -23.27 0.999997 -37.65
8.65000000 0.999993 169.99 4.983e-5 -23.96 4.983e-5 -23.96 0.999997 -37.91
8.70000000 0.999993 168.86 6.350e-5 -24.66 6.350e-5 -24.66 0.999997 -38.17
8.75000000 0.999993 167.73 7.933e-5 -25.36 7.933e-5 -25.36 0.999997 -38.43
8.80000000 0.999992 166.59 9.772e-5 -26.05 9.772e-5 -26.05 0.999997 -38.69
8.85000000 0.999992 165.46 1.192e-4 -26.76 1.192e-4 -26.76 0.999997 -38.96
8.90000000 0.999992 164.33 1.444e-4 -27.46 1.444e-4 -27.46 0.999997 -39.23
8.95000000 0.999992 163.19 1.743e-4 -28.16 1.743e-4 -28.16 0.999997 -39.51
9.00000000 0.999992 162.06 2.098e-4 -28.87 2.098e-4 -28.87 0.999997 -39.80
9.05000000 0.999992 160.93 2.524e-4 -29.58 2.524e-4 -29.58 0.999996 -40.09
9.10000000 0.999992 159.79 3.042e-4 -30.30 3.042e-4 -30.30 0.999996 -40.39
9.15000000 0.999992 158.66 3.678e-4 -31.02 3.678e-4 -31.02 0.999996 -40.70
9.20000000 0.999992 157.53 4.471e-4 -31.75 4.471e-4 -31.75 0.999996 -41.03
9.25000000 0.999992 156.40 5.478e-4 -32.49 5.478e-4 -32.49 0.999996 -41.37
9.30000000 0.999992 155.27 6.785e-4 -33.24 6.785e-4 -33.24 0.999996 -41.74
9.35000000 0.999992 154.14 8.531e-4 -34.01 8.531e-4 -34.01 0.999995 -42.14
9.40000000 0.999992 153.00 0.001096 -34.80 0.001096 -34.80 0.999994 -42.60
9.45000000 0.999991 151.87 0.001450 -35.64 0.001450 -35.64 0.999993 -43.14
9.50000000 0.999990 150.74 0.002010 -36.56 0.002010 -36.56 0.999991 -43.84
9.55000000 0.999988 149.61 0.003010 -37.64 0.003010 -37.64 0.999985 -44.86
9.60000000 0.999979 148.47 0.005252 -39.17 0.005252 -39.17 0.999964 -46.78
9.65000000 0.999887 147.30 0.014455 -43.27 0.014455 -43.27 0.999772 -53.76
9.70000000 0.999587 146.36 0.028373 151.78 0.028373 151.78 0.999194 -22.94
9.75000000 0.999959 145.14 0.008154 143.58 0.008154 143.58 0.999934 -38.01
9.80000000 0.999979 144.00 0.005089 141.73 0.005089 141.73 0.999973 -40.56
9.85000000 0.999985 142.87 0.003874 140.56 0.003874 140.56 0.999984 -41.77
9.90000000 0.999987 141.74 0.003238 139.59 0.003238 139.59 0.999988 -42.58
9.90556524 0.999987 141.62 0.003186 139.49 0.003186 139.49 0.999988 -42.65
9.91100296 0.999988 141.49 0.003138 139.39 0.003138 139.39 0.999988 -42.73
9.91631608 0.999988 141.37 0.003093 139.29 0.003093 139.29 0.999989 -42.79
9.92150746 0.999988 141.26 0.003052 139.20 0.003052 139.20 0.999989 -42.86
9.92657988 0.999988 141.14 0.003014 139.11 0.003014 139.11 0.999989 -42.93
9.93153608 0.999988 141.03 0.002978 139.03 0.002978 139.03 0.999989 -42.99
9.93637871 0.999988 140.92 0.002944 138.94 0.002944 138.94 0.999989 -43.05
9.94111038 0.999988 140.82 0.002913 138.86 0.002913 138.86 0.999989 -43.10
9.94573362 0.999988 140.71 0.002884 138.78 0.002884 138.78 0.999990 -43.16
9.95000000 0.999988 140.62 0.002858 138.71 0.002858 138.71 0.999990 -43.21
9.95025093 0.999988 140.61 0.002856 138.70 0.002856 138.70 0.999990 -43.21
9.95466473 0.999988 140.51 0.002831 138.63 0.002831 138.63 0.999990 -43.26
9.95897740 0.999988 140.41 0.002806 138.55 0.002806 138.55 0.999990 -43.31
9.96319124 0.999989 140.32 0.002783 138.48 0.002783 138.48 0.999990 -43.36
9.96730853 0.999989 140.23 0.002762 138.41 0.002762 138.41 0.999990 -43.40
9.97133148 0.999989 140.13 0.002742 138.35 0.002742 138.35 0.999990 -43.45
9.97526225 0.999989 140.05 0.002722 138.28 0.002722 138.28 0.999990 -43.49
9.97910295 0.999989 139.96 0.002704 138.22 0.002704 138.22 0.999990 -43.53
9.98285564 0.999989 139.88 0.002687 138.16 0.002687 138.16 0.999991 -43.57
9.98652234 0.999989 139.79 0.002671 138.09 0.002671 138.09 0.999991 -43.61
9.99010503 0.999989 139.71 0.002656 138.04 0.002656 138.04 0.999991 -43.65
9.99360562 0.999989 139.63 0.002641 137.98 0.002641 137.98 0.999991 -43.68
9.99702601 0.999989 139.56 0.002627 137.92 0.002627 137.92 0.999991 -43.72
10.0000000 0.999989 139.49 0.002616 137.87 0.002616 137.87 0.999991 -43.75
10.0003680 0.999989 139.48 0.002614 137.87 0.002614 137.87 0.999991 -43.75
10.0036334 0.999989 139.41 0.002602 137.81 0.002602 137.81 0.999991 -43.79
10.0068240 0.999989 139.34 0.002590 137.76 0.002590 137.76 0.999991 -43.82
10.0099415 0.999989 139.27 0.002578 137.71 0.002578 137.71 0.999991 -43.85
10.0129876 0.999989 139.20 0.002568 137.66 0.002568 137.66 0.999991 -43.88
10.0159639 0.999989 139.13 0.002557 137.61 0.002557 137.61 0.999991 -43.91
10.0188719 0.999989 139.06 0.002548 137.56 0.002548 137.56 0.999991 -43.94
10.0217134 0.999989 139.00 0.002538 137.52 0.002538 137.52 0.999991 -43.97
10.0244897 0.999989 138.94 0.002529 137.47 0.002529 137.47 0.999991 -44.00
10.0272024 0.999989 138.88 0.002521 137.43 0.002521 137.43 0.999991 -44.02
10.0298530 0.999989 138.82 0.002513 137.39 0.002513 137.39 0.999991 -44.05
10.0324428 0.999989 138.76 0.002505 137.34 0.002505 137.34 0.999991 -44.07
10.0349733 0.999989 138.70 0.002498 137.30 0.002498 137.30 0.999991 -44.10
10.0374458 0.999989 138.65 0.002491 137.26 0.002491 137.26 0.999991 -44.12
10.0398616 0.999989 138.59 0.002484 137.22 0.002484 137.22 0.999991 -44.15
10.0422221 0.999989 138.54 0.002477 137.19 0.002477 137.19 0.999991 -44.17
10.0445285 0.999989 138.49 0.002471 137.15 0.002471 137.15 0.999991 -44.19
10.0467820 0.999989 138.44 0.002465 137.11 0.002465 137.11 0.999991 -44.21
10.0489839 0.999989 138.39 0.002459 137.08 0.002459 137.08 0.999991 -44.23
10.0500000 0.999989 138.36 0.002457 137.06 0.002457 137.06 0.999991 -44.24
10.0511354 0.999989 138.34 0.002454 137.04 0.002454 137.04 0.999992 -44.26
10.0532375 0.999989 138.29 0.002449 137.01 0.002449 137.01 0.999992 -44.28
10.0552915 0.999989 138.24 0.002444 136.98 0.002444 136.98 0.999992 -44.29
10.0572985 0.999989 138.20 0.002439 136.94 0.002439 136.94 0.999992 -44.31
10.0592594 0.999989 138.16 0.002434 136.91 0.002434 136.91 0.999992 -44.33
10.0611754 0.999989 138.11 0.002430 136.88 0.002430 136.88 0.999992 -44.35
10.0630475 0.999989 138.07 0.002425 136.85 0.002425 136.85 0.999992 -44.37
10.0648767 0.999989 138.03 0.002421 136.82 0.002421 136.82 0.999992 -44.39
10.0666640 0.999990 137.99 0.002417 136.79 0.002417 136.79 0.999992 -44.40
10.0684103 0.999990 137.95 0.002413 136.77 0.002413 136.77 0.999992 -44.42
10.0701167 0.999990 137.91 0.002410 136.74 0.002410 136.74 0.999992 -44.44
10.0717839 0.999990 137.87 0.002406 136.71 0.002406 136.71 0.999992 -44.45
10.0734129 0.999990 137.84 0.002403 136.69 0.002403 136.69 0.999992 -44.47
10.0750046 0.999990 137.80 0.002399 136.66 0.002399 136.66 0.999992 -44.48
10.0765598 0.999990 137.77 0.002396 136.64 0.002396 136.64 0.999992 -44.50
10.0780794 0.999990 137.73 0.002393 136.61 0.002393 136.61 0.999992 -44.51
10.0795642 0.999990 137.70 0.002390 136.59 0.002390 136.59 0.999992 -44.52
10.0810149 0.999990 137.67 0.002387 136.57 0.002387 136.57 0.999992 -44.54
10.0824324 0.999990 137.63 0.002385 136.54 0.002385 136.54 0.999992 -44.55
10.0838174 0.999990 137.60 0.002382 136.52 0.002382 136.52 0.999992 -44.56
10.0851707 0.999990 137.57 0.002379 136.50 0.002379 136.50 0.999992 -44.58
10.0864930 0.999990 137.54 0.002377 136.48 0.002377 136.48 0.999992 -44.59
10.0877850 0.999990 137.51 0.002375 136.46 0.002375 136.46 0.999992 -44.60
10.0890474 0.999990 137.49 0.002372 136.44 0.002372 136.44 0.999992 -44.61
10.0902808 0.999990 137.46 0.002370 136.42 0.002370 136.42 0.999992 -44.62
10.0914860 0.999990 137.43 0.002368 136.40 0.002368 136.40 0.999992 -44.64
10.0926636 0.999990 137.40 0.002366 136.38 0.002366 136.38 0.999992 -44.65
10.0938142 0.999990 137.38 0.002364 136.36 0.002364 136.36 0.999992 -44.66
10.0949384 0.999990 137.35 0.002362 136.34 0.002362 136.34 0.999992 -44.67
10.0960369 0.999990 137.33 0.002360 136.33 0.002360 136.33 0.999992 -44.68
10.0971101 0.999990 137.30 0.002358 136.31 0.002358 136.31 0.999992 -44.69
10.0981589 0.999990 137.28 0.002357 136.29 0.002357 136.29 0.999992 -44.70
10.0991835 0.999990 137.26 0.002355 136.28 0.002355 136.28 0.999992 -44.71
10.1000000 0.999990 137.24 0.002354 136.26 0.002354 136.26 0.999992 -44.71
10.1001847 0.999990 137.23 0.002353 136.26 0.002353 136.26 0.999992 -44.72
10.1011630 0.999990 137.21 0.002352 136.24 0.002352 136.24 0.999992 -44.73
10.1021188 0.999990 137.19 0.002350 136.23 0.002350 136.23 0.999992 -44.73
10.1030527 0.999990 137.17 0.002349 136.21 0.002349 136.21 0.999992 -44.74
10.1039653 0.999990 137.15 0.002347 136.20 0.002347 136.20 0.999992 -44.75
10.1048569 0.999990 137.13 0.002346 136.19 0.002346 136.19 0.999992 -44.76
10.1057281 0.999990 137.11 0.002345 136.17 0.002345 136.17 0.999992 -44.77
10.1065793 0.999990 137.09 0.002343 136.16 0.002343 136.16 0.999992 -44.78
10.1074110 0.999990 137.07 0.002342 136.15 0.002342 136.15 0.999992 -44.78
10.1082237 0.999990 137.05 0.002341 136.13 0.002341 136.13 0.999992 -44.79
10.1090178 0.999990 137.04 0.002340 136.12 0.002340 136.12 0.999992 -44.80
10.1097936 0.999990 137.02 0.002339 136.11 0.002339 136.11 0.999992 -44.81
10.1105517 0.999990 137.00 0.002337 136.10 0.002337 136.10 0.999992 -44.81
10.1112924 0.999990 136.99 0.002336 136.08 0.002336 136.08 0.999992 -44.82
10.1120161 0.999990 136.97 0.002335 136.07 0.002335 136.07 0.999992 -44.83
10.1127233 0.999990 136.95 0.002334 136.06 0.002334 136.06 0.999992 -44.83
10.1134142 0.999990 136.94 0.002333 136.05 0.002333 136.05 0.999992 -44.84
10.1140893 0.999990 136.92 0.002332 136.04 0.002332 136.04 0.999992 -44.85
10.1147490 0.999990 136.91 0.002331 136.03 0.002331 136.03 0.999992 -44.85
10.1153935 0.999990 136.89 0.002331 136.02 0.002331 136.02 0.999992 -44.86
10.1160233 0.999990 136.88 0.002330 136.01 0.002330 136.01 0.999992 -44.86
10.1166386 0.999990 136.86 0.002329 136.00 0.002329 136.00 0.999992 -44.87
10.1172398 0.999990 136.85 0.002328 135.99 0.002328 135.99 0.999992 -44.87
10.1178273 0.999990 136.84 0.002327 135.98 0.002327 135.98 0.999992 -44.88
10.1184013 0.999990 136.83 0.002326 135.97 0.002326 135.97 0.999992 -44.88
10.1189621 0.999990 136.81 0.002326 135.96 0.002326 135.96 0.999992 -44.89
10.1195101 0.999990 136.80 0.002325 135.95 0.002325 135.95 0.999992 -44.90
10.1200455 0.999990 136.79 0.002324 135.95 0.002324 135.95 0.999992 -44.90
10.1205687 0.999990 136.78 0.002324 135.94 0.002324 135.94 0.999992 -44.90
10.1210799 0.999990 136.77 0.002323 135.93 0.002323 135.93 0.999992 -44.91
10.1215793 0.999990 136.75 0.002322 135.92 0.002322 135.92 0.999992 -44.91
10.1220674 0.999990 136.74 0.002322 135.91 0.002322 135.91 0.999992 -44.92
10.1225442 0.999990 136.73 0.002321 135.91 0.002321 135.91 0.999992 -44.92
10.1230101 0.999990 136.72 0.002320 135.90 0.002320 135.90 0.999992 -44.93
10.1234653 0.999990 136.71 0.002320 135.89 0.002320 135.89 0.999992 -44.93
10.1239101 0.999990 136.70 0.002319 135.88 0.002319 135.88 0.999992 -44.94
10.1243448 0.999990 136.69 0.002319 135.88 0.002319 135.88 0.999992 -44.94
10.1247694 0.999990 136.68 0.002318 135.87 0.002318 135.87 0.999992 -44.94
10.1251843 0.999990 136.67 0.002318 135.86 0.002318 135.86 0.999992 -44.95
10.1255898 0.999990 136.66 0.002317 135.86 0.002317 135.86 0.999992 -44.95
10.1259859 0.999990 136.65 0.002317 135.85 0.002317 135.85 0.999992 -44.95
10.1263729 0.999990 136.65 0.002316 135.84 0.002316 135.84 0.999992 -44.96
10.1267511 0.999990 136.64 0.002316 135.84 0.002316 135.84 0.999992 -44.96
10.1271206 0.999990 136.63 0.002315 135.83 0.002315 135.83 0.999992 -44.97
10.1274817 0.999990 136.62 0.002315 135.83 0.002315 135.83 0.999992 -44.97
10.1278344 0.999990 136.61 0.002314 135.82 0.002314 135.82 0.999992 -44.97
10.1281791 0.999990 136.61 0.002314 135.82 0.002314 135.82 0.999992 -44.97
10.1285159 0.999990 136.60 0.002314 135.81 0.002314 135.81 0.999992 -44.98
10.1288450 0.999990 136.59 0.002313 135.81 0.002313 135.81 0.999992 -44.98
10.1291665 0.999990 136.58 0.002313 135.80 0.002313 135.80 0.999992 -44.98
10.1294807 0.999990 136.58 0.002312 135.80 0.002312 135.80 0.999992 -44.99
10.1297877 0.999990 136.57 0.002312 135.79 0.002312 135.79 0.999992 -44.99
10.1300876 0.999990 136.56 0.002312 135.79 0.002312 135.79 0.999992 -44.99
10.1303807 0.999990 136.56 0.002311 135.78 0.002311 135.78 0.999992 -44.99
10.1306670 0.999990 136.55 0.002311 135.78 0.002311 135.78 0.999992 -45.00
10.1309468 0.999990 136.54 0.002311 135.77 0.002311 135.77 0.999992 -45.00
10.1312202 0.999990 136.54 0.002310 135.77 0.002310 135.77 0.999992 -45.00
10.1314873 0.999990 136.53 0.002310 135.76 0.002310 135.76 0.999992 -45.01
10.1317483 0.999990 136.53 0.002310 135.76 0.002310 135.76 0.999992 -45.01
10.1320033 0.999990 136.52 0.002309 135.76 0.002309 135.76 0.999992 -45.01
10.1322525 0.999990 136.51 0.002309 135.75 0.002309 135.75 0.999992 -45.01
10.1324959 0.999990 136.51 0.002309 135.75 0.002309 135.75 0.999992 -45.01
10.1327338 0.999990 136.50 0.002309 135.74 0.002309 135.74 0.999992 -45.02
10.1329662 0.999990 136.50 0.002308 135.74 0.002308 135.74 0.999992 -45.02
10.1331933 0.999990 136.49 0.002308 135.74 0.002308 135.74 0.999992 -45.02
10.1334152 0.999990 136.49 0.002308 135.73 0.002308 135.73 0.999992 -45.02
10.1336320 0.999990 136.48 0.002308 135.73 0.002308 135.73 0.999992 -45.02
10.1338439 0.999990 136.48 0.002307 135.73 0.002307 135.73 0.999992 -45.03
10.1340509 0.999990 136.47 0.002307 135.72 0.002307 135.72 0.999992 -45.03
10.1342531 0.999990 136.47 0.002307 135.72 0.002307 135.72 0.999992 -45.03
10.1344507 0.999990 136.46 0.002307 135.72 0.002307 135.72 0.999992 -45.03
10.1346438 0.999990 136.46 0.002306 135.71 0.002306 135.71 0.999992 -45.03
10.1348325 0.999990 136.46 0.002306 135.71 0.002306 135.71 0.999992 -45.04
10.1350168 0.999990 136.45 0.002306 135.71 0.002306 135.71 0.999992 -45.04
10.1351970 0.999990 136.45 0.002306 135.71 0.002306 135.71 0.999992 -45.04
10.1353729 0.999990 136.44 0.002306 135.70 0.002306 135.70 0.999992 -45.04
10.1355449 0.999990 136.44 0.002305 135.70 0.002305 135.70 0.999992 -45.04
10.1357129 0.999990 136.44 0.002305 135.70 0.002305 135.70 0.999992 -45.04
10.1358771 0.999990 136.43 0.002305 135.69 0.002305 135.69 0.999992 -45.05
10.1360375 0.999990 136.43 0.002305 135.69 0.002305 135.69 0.999992 -45.05
10.1361942 0.999990 136.43 0.002305 135.69 0.002305 135.69 0.999992 -45.05
10.1363473 0.999990 136.42 0.002305 135.69 0.002305 135.69 0.999992 -45.05
10.1364970 0.999990 136.42 0.002304 135.68 0.002304 135.68 0.999992 -45.05
10.1366432 0.999990 136.42 0.002304 135.68 0.002304 135.68 0.999992 -45.05
10.1367860 0.999990 136.41 0.002304 135.68 0.002304 135.68 0.999992 -45.05
10.1369256 0.999990 136.41 0.002304 135.68 0.002304 135.68 0.999992 -45.05
10.1370620 0.999990 136.41 0.002304 135.68 0.002304 135.68 0.999992 -45.06
10.1371952 0.999990 136.40 0.002304 135.67 0.002304 135.67 0.999992 -45.06
10.1373254 0.999990 136.40 0.002303 135.67 0.002303 135.67 0.999992 -45.06
10.1374526 0.999990 136.40 0.002303 135.67 0.002303 135.67 0.999992 -45.06
10.1375770 0.999990 136.39 0.002303 135.67 0.002303 135.67 0.999992 -45.06
10.1376984 0.999990 136.39 0.002303 135.67 0.002303 135.67 0.999992 -45.06
10.1378171 0.999990 136.39 0.002303 135.66 0.002303 135.66 0.999992 -45.06
10.1379330 0.999990 136.39 0.002303 135.66 0.002303 135.66 0.999992 -45.06
