! Sonnet Data File
! From: emgraph Version : 16.54
! From Project: BusResonator_17
! Data is De-embedded 
! Data File Written: 08/31/2017 18:33:07
!< HDATE 08/31/2017 16:58:22
!< MDATE 08/31/2017 17:03:00
!< PARAMS
!< BusLengthControl = 5100.0
!< END PARAMS
# GHZ S MA R 50.00000
6.00000000 0.999992 173.01 1.081e-5 -16.35 1.081e-5 -16.35 0.999998 -25.71
!< P1 F=6.0 Eeff=(6.44857038 -2.9736e-5) Z0=(51.7893065 1.19468e-4) R=0.05083541 C=0.00240605 
!< P2 F=6.0 Eeff=(6.44857038 -2.9736e-5) Z0=(51.7893065 1.19468e-4) R=0.05083541 C=0.00240605 
6.05000000 0.999992 171.40 1.086e-5 -17.26 1.086e-5 -17.26 0.999998 -25.93
6.10000000 0.999991 169.79 1.091e-5 -18.18 1.091e-5 -18.18 0.999998 -26.15
6.15000000 0.999991 168.18 1.095e-5 -19.09 1.095e-5 -19.09 0.999998 -26.37
6.20000000 0.999990 166.57 1.099e-5 -20.01 1.099e-5 -20.01 0.999998 -26.59
6.25000000 0.999990 164.96 1.103e-5 -20.92 1.103e-5 -20.92 0.999998 -26.81
6.30000000 0.999990 163.35 1.106e-5 -21.84 1.106e-5 -21.84 0.999998 -27.03
6.35000000 0.999990 161.74 1.108e-5 -22.75 1.108e-5 -22.75 0.999998 -27.25
6.40000000 0.999990 160.14 1.111e-5 -23.67 1.111e-5 -23.67 0.999998 -27.47
6.45000000 0.999990 158.53 1.112e-5 -24.58 1.112e-5 -24.58 0.999998 -27.69
6.50000000 0.999990 156.92 1.113e-5 -25.50 1.113e-5 -25.50 0.999998 -27.91
6.55000000 0.999990 155.32 1.113e-5 -26.41 1.113e-5 -26.41 0.999998 -28.13
6.60000000 0.999991 153.71 1.113e-5 -27.32 1.113e-5 -27.32 0.999998 -28.36
6.65000000 0.999991 152.10 1.112e-5 -28.24 1.112e-5 -28.24 0.999998 -28.58
6.70000000 0.999991 150.50 1.110e-5 -29.15 1.110e-5 -29.15 0.999998 -28.80
6.75000000 0.999991 148.90 1.108e-5 -30.06 1.108e-5 -30.06 0.999998 -29.02
6.80000000 0.999992 147.29 1.104e-5 -30.98 1.104e-5 -30.98 0.999998 -29.25
6.85000000 0.999992 145.69 1.100e-5 -31.89 1.100e-5 -31.89 0.999998 -29.47
6.90000000 0.999992 144.09 1.095e-5 -32.80 1.095e-5 -32.80 0.999998 -29.69
6.95000000 0.999992 142.49 1.088e-5 -33.71 1.088e-5 -33.71 0.999998 -29.92
7.00000000 0.999992 140.89 1.081e-5 -34.62 1.081e-5 -34.62 0.999998 -30.14
!< P1 F=7.0 Eeff=(6.44803184 -2.9731e-5) Z0=(51.7867691 1.19475e-4) R=0.04358307 C=0.00240603 
!< P2 F=7.0 Eeff=(6.44803184 -2.9731e-5) Z0=(51.7867691 1.19475e-4) R=0.04358307 C=0.00240603 
7.05000000 0.999993 139.29 1.072e-5 -35.54 1.072e-5 -35.54 0.999998 -30.37
7.10000000 0.999993 137.70 1.063e-5 -36.45 1.063e-5 -36.45 0.999998 -30.59
7.15000000 0.999993 136.10 1.052e-5 -37.36 1.052e-5 -37.36 0.999998 -30.82
7.20000000 0.999993 134.51 1.039e-5 -38.27 1.039e-5 -38.27 0.999998 -31.04
7.25000000 0.999993 132.91 1.026e-5 -39.18 1.026e-5 -39.18 0.999997 -31.27
7.30000000 0.999993 131.32 1.010e-5 -40.09 1.010e-5 -40.09 0.999997 -31.49
7.35000000 0.999993 129.73 9.931e-6 -41.00 9.931e-6 -41.00 0.999997 -31.72
7.40000000 0.999993 128.14 9.743e-6 -41.91 9.743e-6 -41.91 0.999997 -31.95
7.45000000 0.999993 126.55 9.535e-6 -42.81 9.535e-6 -42.81 0.999997 -32.18
7.50000000 0.999993 124.96 9.307e-6 -43.72 9.307e-6 -43.72 0.999997 -32.41
7.55000000 0.999993 123.37 9.057e-6 -44.63 9.057e-6 -44.63 0.999997 -32.64
7.60000000 0.999993 121.79 8.785e-6 -45.54 8.785e-6 -45.54 0.999997 -32.87
7.65000000 0.999993 120.20 8.487e-6 -46.45 8.487e-6 -46.45 0.999997 -33.10
7.70000000 0.999993 118.62 8.162e-6 -47.35 8.162e-6 -47.35 0.999997 -33.33
7.75000000 0.999993 117.04 7.809e-6 -48.26 7.809e-6 -48.26 0.999997 -33.56
7.80000000 0.999992 115.46 7.425e-6 -49.16 7.425e-6 -49.16 0.999997 -33.79
7.85000000 0.999992 113.88 7.008e-6 -50.07 7.008e-6 -50.07 0.999997 -34.02
7.90000000 0.999992 112.30 6.556e-6 -50.98 6.556e-6 -50.98 0.999997 -34.26
7.95000000 0.999992 110.73 6.066e-6 -51.88 6.066e-6 -51.88 0.999997 -34.49
!< P1 F=7.95 Eeff=(6.44744364 -2.9725e-5) Z0=(51.7839107 1.19484e-4) R=0.03837175 C=0.00240601 
!< P2 F=7.95 Eeff=(6.44744364 -2.9725e-5) Z0=(51.7839107 1.19484e-4) R=0.03837175 C=0.00240601 
8.00000000 0.999992 109.15 5.534e-6 -52.79 5.534e-6 -52.79 0.999997 -34.73
8.05000000 0.999992 107.58 4.959e-6 -53.69 4.959e-6 -53.69 0.999997 -34.97
8.10000000 0.999992 106.01 4.335e-6 -54.59 4.335e-6 -54.59 0.999997 -35.20
8.15000000 0.999991 104.44 3.660e-6 -55.50 3.660e-6 -55.50 0.999997 -35.44
8.20000000 0.999991 102.87 2.930e-6 -56.40 2.930e-6 -56.40 0.999997 -35.68
8.25000000 0.999991 101.30 2.139e-6 -57.30 2.139e-6 -57.30 0.999997 -35.92
8.30000000 0.999991 99.739 1.283e-6 -58.20 1.283e-6 -58.20 0.999997 -36.17
8.35000000 0.999991 98.175 3.552e-7 -59.07 3.552e-7 -59.07 0.999997 -36.41
8.40000000 0.999991 96.612 6.493e-7 119.95 6.493e-7 119.95 0.999997 -36.65
8.45000000 0.999991 95.051 1.738e-6 119.06 1.738e-6 119.06 0.999997 -36.90
8.50000000 0.999991 93.491 2.918e-6 118.16 2.918e-6 118.16 0.999997 -37.15
8.55000000 0.999991 91.933 4.198e-6 117.26 4.198e-6 117.26 0.999997 -37.40
8.60000000 0.999990 90.376 5.588e-6 116.36 5.588e-6 116.36 0.999997 -37.65
8.65000000 0.999990 88.821 7.098e-6 115.45 7.098e-6 115.45 0.999997 -37.91
8.70000000 0.999990 87.268 8.740e-6 114.55 8.740e-6 114.55 0.999997 -38.16
8.75000000 0.999990 85.716 1.053e-5 113.64 1.053e-5 113.64 0.999997 -38.42
8.80000000 0.999990 84.165 1.248e-5 112.74 1.248e-5 112.74 0.999997 -38.68
8.85000000 0.999990 82.616 1.460e-5 111.83 1.460e-5 111.83 0.999997 -38.95
8.90000000 0.999990 81.068 1.692e-5 110.92 1.692e-5 110.92 0.999997 -39.22
8.95000000 0.999990 79.522 1.946e-5 110.01 1.946e-5 110.01 0.999997 -39.49
9.00000000 0.999990 77.977 2.225e-5 109.10 2.225e-5 109.10 0.999997 -39.76
9.05000000 0.999990 76.434 2.530e-5 108.19 2.530e-5 108.19 0.999997 -40.04
9.10000000 0.999990 74.892 2.867e-5 107.28 2.867e-5 107.28 0.999996 -40.33
9.15000000 0.999990 73.352 3.238e-5 106.36 3.238e-5 106.36 0.999996 -40.62
9.20000000 0.999990 71.813 3.648e-5 105.45 3.648e-5 105.45 0.999996 -40.92
9.25000000 0.999990 70.275 4.102e-5 104.52 4.102e-5 104.52 0.999996 -41.22
9.30000000 0.999990 68.739 4.608e-5 103.60 4.608e-5 103.60 0.999996 -41.53
9.35000000 0.999990 67.204 5.171e-5 102.67 5.171e-5 102.67 0.999996 -41.85
9.40000000 0.999991 65.671 5.802e-5 101.74 5.802e-5 101.74 0.999996 -42.18
!< P1 F=9.4 Eeff=(6.44640181 -2.9716e-5) Z0=(51.77859 1.19498e-4) R=0.03241326 C=0.00240598 
!< P2 F=9.4 Eeff=(6.44640181 -2.9716e-5) Z0=(51.77859 1.19498e-4) R=0.03241326 C=0.00240598 
9.45000000 0.999991 64.139 6.511e-5 100.80 6.511e-5 100.80 0.999996 -42.52
9.50000000 0.999991 62.608 7.312e-5 99.862 7.312e-5 99.862 0.999996 -42.88
9.55000000 0.999991 61.078 8.221e-5 98.911 8.221e-5 98.911 0.999996 -43.25
9.60000000 0.999991 59.550 9.258e-5 97.952 9.258e-5 97.952 0.999996 -43.64
9.65000000 0.999991 58.023 1.045e-4 96.982 1.045e-4 96.982 0.999995 -44.05
9.70000000 0.999991 56.497 1.183e-4 95.999 1.183e-4 95.999 0.999995 -44.49
9.75000000 0.999991 54.973 1.344e-4 95.000 1.344e-4 95.000 0.999995 -44.97
9.80000000 0.999991 53.450 1.533e-4 93.981 1.533e-4 93.981 0.999995 -45.48
9.85000000 0.999991 51.927 1.759e-4 92.936 1.759e-4 92.936 0.999994 -46.05
9.90000000 0.999991 50.406 2.033e-4 91.858 2.033e-4 91.858 0.999994 -46.69
9.95000000 0.999991 48.887 2.368e-4 90.736 2.368e-4 90.736 0.999993 -47.41
10.0000000 0.999991 47.368 2.789e-4 89.554 2.789e-4 89.554 0.999992 -48.25
10.0500000 0.999991 45.850 3.330e-4 88.287 3.330e-4 88.287 0.999991 -49.27
10.1000000 0.999991 44.333 4.049e-4 86.895 4.049e-4 86.895 0.999989 -50.54
10.1500000 0.999991 42.818 5.044e-4 85.307 5.044e-4 85.307 0.999986 -52.20
10.2000000 0.999991 41.303 6.506e-4 83.388 6.506e-4 83.388 0.999981 -54.52
10.2500000 0.999990 39.789 8.851e-4 80.841 8.851e-4 80.841 0.999970 -58.10
10.3000000 0.999990 38.277 0.001318 76.873 0.001318 76.873 0.999942 -64.51
10.3500000 0.999988 36.764 0.002358 68.454 0.002358 68.454 0.999838 -79.83
10.4000000 0.999970 35.253 0.006497 31.337 0.006497 31.337 0.998899 -152.5
10.4500000 0.999981 33.745 0.004350 -64.07 0.004350 -64.07 0.999548 18.067
10.5000000 0.999988 32.235 0.002118 -82.22 0.002118 -82.22 0.999899 -16.71
10.5500000 0.999989 30.726 0.001418 -88.17 0.001418 -88.17 0.999957 -27.09
10.6000000 0.999990 29.218 0.001086 -91.42 0.001086 -91.42 0.999975 -32.08
10.6500000 0.999990 27.711 8.954e-4 -93.67 8.954e-4 -93.67 0.999983 -35.06
10.7000000 0.999990 26.205 7.719e-4 -95.43 7.719e-4 -95.43 0.999987 -37.08
10.7500000 0.999990 24.699 6.861e-4 -96.93 6.861e-4 -96.93 0.999990 -38.57
10.8000000 0.999990 23.193 6.235e-4 -98.26 6.235e-4 -98.26 0.999991 -39.73
10.8500000 0.999990 21.689 5.761e-4 -99.49 5.761e-4 -99.49 0.999992 -40.67
10.9000000 0.999989 20.185 5.393e-4 -100.6 5.393e-4 -100.6 0.999993 -41.47
10.9500000 0.999989 18.681 5.102e-4 -101.7 5.102e-4 -101.7 0.999994 -42.16
11.0000000 0.999989 17.178 4.868e-4 -102.8 4.868e-4 -102.8 0.999994 -42.78
11.0500000 0.999989 15.675 4.679e-4 -103.8 4.679e-4 -103.8 0.999994 -43.33
11.1000000 0.999989 14.173 4.525e-4 -104.8 4.525e-4 -104.8 0.999995 -43.83
11.1500000 0.999989 12.671 4.400e-4 -105.8 4.400e-4 -105.8 0.999995 -44.30
11.2000000 0.999988 11.169 4.297e-4 -106.8 4.297e-4 -106.8 0.999995 -44.74
11.2500000 0.999988 9.6675 4.214e-4 -107.7 4.214e-4 -107.7 0.999995 -45.15
11.3000000 0.999988 8.1664 4.148e-4 -108.7 4.148e-4 -108.7 0.999995 -45.55
11.3500000 0.999988 6.6654 4.096e-4 -109.6 4.096e-4 -109.6 0.999995 -45.92
11.4000000 0.999988 5.1646 4.057e-4 -110.6 4.057e-4 -110.6 0.999995 -46.29
11.4500000 0.999987 3.6639 4.028e-4 -111.5 4.028e-4 -111.5 0.999995 -46.64
11.5000000 0.999987 2.1633 4.010e-4 -112.4 4.010e-4 -112.4 0.999995 -46.98
11.5500000 0.999987 0.6628 4.001e-4 -113.3 4.001e-4 -113.3 0.999995 -47.31
11.6000000 0.999987 -0.838 4.000e-4 -114.2 4.000e-4 -114.2 0.999995 -47.63
11.6500000 0.999986 -2.338 4.008e-4 -115.1 4.008e-4 -115.1 0.999995 -47.95
11.7000000 0.999986 -3.839 4.022e-4 -116.0 4.022e-4 -116.0 0.999995 -48.26
11.7500000 0.999986 -5.340 4.044e-4 -117.0 4.044e-4 -117.0 0.999995 -48.57
11.8000000 0.999986 -6.840 4.073e-4 -117.9 4.073e-4 -117.9 0.999995 -48.87
11.8500000 0.999986 -8.341 4.108e-4 -118.8 4.108e-4 -118.8 0.999995 -49.17
11.9000000 0.999985 -9.843 4.151e-4 -119.7 4.151e-4 -119.7 0.999995 -49.47
11.9500000 0.999985 -11.34 4.199e-4 -120.6 4.199e-4 -120.6 0.999995 -49.76
12.0000000 0.999985 -12.85 4.255e-4 -121.4 4.255e-4 -121.4 0.999995 -50.05
12.0500000 0.999985 -14.35 4.317e-4 -122.3 4.317e-4 -122.3 0.999995 -50.34
12.1000000 0.999985 -15.85 4.387e-4 -123.2 4.387e-4 -123.2 0.999995 -50.63
12.1500000 0.999985 -17.35 4.463e-4 -124.1 4.463e-4 -124.1 0.999995 -50.92
12.2000000 0.999984 -18.86 4.548e-4 -125.0 4.548e-4 -125.0 0.999995 -51.20
12.2500000 0.999984 -20.36 4.639e-4 -125.9 4.639e-4 -125.9 0.999995 -51.49
12.3000000 0.999984 -21.86 4.740e-4 -126.8 4.740e-4 -126.8 0.999995 -51.78
12.3500000 0.999984 -23.37 4.849e-4 -127.7 4.849e-4 -127.7 0.999995 -52.07
!< P1 F=12.35 Eeff=(6.44374649 -2.9691e-5) Z0=(51.7627796 1.19575e-4) R=0.02469975 C=0.00240588 
!< P2 F=12.35 Eeff=(6.44374649 -2.9691e-5) Z0=(51.7627796 1.19575e-4) R=0.02469975 C=0.00240588 
12.4000000 0.999984 -24.87 4.967e-4 -128.6 4.967e-4 -128.6 0.999995 -52.35
12.4500000 0.999984 -26.38 5.095e-4 -129.5 5.095e-4 -129.5 0.999995 -52.64
12.5000000 0.999984 -27.89 5.234e-4 -130.4 5.234e-4 -130.4 0.999995 -52.93
12.5500000 0.999983 -29.39 5.385e-4 -131.3 5.385e-4 -131.3 0.999995 -53.22
12.6000000 0.999983 -30.90 5.549e-4 -132.2 5.549e-4 -132.2 0.999995 -53.52
12.6500000 0.999983 -32.41 5.726e-4 -133.1 5.726e-4 -133.1 0.999995 -53.81
12.7000000 0.999983 -33.92 5.919e-4 -134.0 5.919e-4 -134.0 0.999995 -54.11
12.7500000 0.999983 -35.43 6.129e-4 -134.9 6.129e-4 -134.9 0.999995 -54.42
12.8000000 0.999983 -36.94 6.357e-4 -135.8 6.357e-4 -135.8 0.999995 -54.72
12.8500000 0.999983 -38.45 6.606e-4 -136.7 6.606e-4 -136.7 0.999995 -55.04
12.9000000 0.999983 -39.96 6.879e-4 -137.7 6.879e-4 -137.7 0.999995 -55.35
12.9500000 0.999982 -41.48 7.178e-4 -138.6 7.178e-4 -138.6 0.999994 -55.68
13.0000000 0.999982 -42.99 7.508e-4 -139.5 7.508e-4 -139.5 0.999994 -56.01
13.0500000 0.999982 -44.51 7.871e-4 -140.4 7.871e-4 -140.4 0.999994 -56.35
13.1000000 0.999982 -46.02 8.275e-4 -141.4 8.275e-4 -141.4 0.999994 -56.70
13.1500000 0.999982 -47.54 8.725e-4 -142.3 8.725e-4 -142.3 0.999994 -57.06
13.2000000 0.999982 -49.06 9.228e-4 -143.3 9.228e-4 -143.3 0.999994 -57.44
13.2500000 0.999982 -50.58 9.795e-4 -144.2 9.795e-4 -144.2 0.999993 -57.83
13.3000000 0.999981 -52.10 0.001044 -145.2 0.001044 -145.2 0.999993 -58.25
13.3500000 0.999981 -53.62 0.001117 -146.2 0.001117 -146.2 0.999993 -58.69
13.3562110 0.999981 -53.81 0.001127 -146.3 0.001127 -146.3 0.999992 -58.74
13.3622798 0.999981 -54.00 0.001137 -146.4 0.001137 -146.4 0.999992 -58.80
13.3682094 0.999981 -54.18 0.001147 -146.5 0.001147 -146.5 0.999992 -58.85
13.3740032 0.999981 -54.35 0.001156 -146.6 0.001156 -146.6 0.999992 -58.91
13.3796643 0.999981 -54.53 0.001166 -146.7 0.001166 -146.7 0.999992 -58.96
13.3851956 0.999981 -54.69 0.001175 -146.9 0.001175 -146.9 0.999992 -59.01
13.3906002 0.999981 -54.86 0.001185 -147.0 0.001185 -147.0 0.999992 -59.06
13.3958809 0.999981 -55.02 0.001194 -147.1 0.001194 -147.1 0.999992 -59.11
13.4000000 0.999981 -55.15 0.001202 -147.2 0.001202 -147.2 0.999992 -59.15
13.4010407 0.999981 -55.18 0.001204 -147.2 0.001204 -147.2 0.999992 -59.16
13.4060822 0.999981 -55.33 0.001213 -147.3 0.001213 -147.3 0.999992 -59.21
13.4110082 0.999981 -55.48 0.001222 -147.4 0.001222 -147.4 0.999992 -59.26
13.4158213 0.999981 -55.63 0.001231 -147.5 0.001231 -147.5 0.999992 -59.31
13.4205241 0.999981 -55.77 0.001240 -147.6 0.001240 -147.6 0.999992 -59.36
13.4251192 0.999981 -55.91 0.001249 -147.7 0.001249 -147.7 0.999992 -59.40
13.4296090 0.999981 -56.05 0.001258 -147.8 0.001258 -147.8 0.999992 -59.45
13.4339959 0.999981 -56.18 0.001267 -147.8 0.001267 -147.8 0.999992 -59.49
13.4382823 0.999981 -56.31 0.001276 -147.9 0.001276 -147.9 0.999992 -59.54
13.4424704 0.999981 -56.44 0.001284 -148.0 0.001284 -148.0 0.999992 -59.58
13.4465626 0.999981 -56.57 0.001293 -148.1 0.001293 -148.1 0.999991 -59.63
13.4500000 0.999981 -56.67 0.001300 -148.2 0.001300 -148.2 0.999991 -59.66
13.4505610 0.999981 -56.69 0.001301 -148.2 0.001301 -148.2 0.999991 -59.67
13.4544679 0.999981 -56.81 0.001310 -148.3 0.001310 -148.3 0.999991 -59.71
13.4582851 0.999981 -56.92 0.001318 -148.3 0.001318 -148.3 0.999991 -59.75
13.4620150 0.999981 -57.04 0.001326 -148.4 0.001326 -148.4 0.999991 -59.79
13.4656593 0.999981 -57.15 0.001334 -148.5 0.001334 -148.5 0.999991 -59.83
13.4692202 0.999981 -57.26 0.001342 -148.6 0.001342 -148.6 0.999991 -59.87
13.4726994 0.999981 -57.36 0.001350 -148.6 0.001350 -148.6 0.999991 -59.91
13.4760990 0.999981 -57.47 0.001358 -148.7 0.001358 -148.7 0.999991 -59.94
13.4794206 0.999981 -57.57 0.001366 -148.8 0.001366 -148.8 0.999991 -59.98
13.4826661 0.999981 -57.67 0.001374 -148.8 0.001374 -148.8 0.999991 -60.02
13.4858373 0.999981 -57.76 0.001381 -148.9 0.001381 -148.9 0.999991 -60.05
13.4889358 0.999981 -57.86 0.001389 -149.0 0.001389 -149.0 0.999991 -60.09
13.4919633 0.999981 -57.95 0.001396 -149.0 0.001396 -149.0 0.999991 -60.12
13.4949214 0.999980 -58.04 0.001403 -149.1 0.001403 -149.1 0.999991 -60.16
13.4978118 0.999980 -58.13 0.001411 -149.2 0.001411 -149.2 0.999991 -60.19
13.5000000 0.999980 -58.20 0.001416 -149.2 0.001416 -149.2 0.999991 -60.22
13.5006359 0.999980 -58.21 0.001418 -149.2 0.001418 -149.2 0.999991 -60.22
13.5033953 0.999980 -58.30 0.001425 -149.3 0.001425 -149.3 0.999991 -60.26
13.5060915 0.999980 -58.38 0.001432 -149.3 0.001432 -149.3 0.999991 -60.29
13.5087259 0.999980 -58.46 0.001439 -149.4 0.001439 -149.4 0.999991 -60.32
13.5112999 0.999980 -58.54 0.001445 -149.4 0.001445 -149.4 0.999990 -60.35
13.5138150 0.999980 -58.62 0.001452 -149.5 0.001452 -149.5 0.999990 -60.38
13.5162724 0.999980 -58.69 0.001458 -149.6 0.001458 -149.6 0.999990 -60.41
13.5186735 0.999980 -58.77 0.001465 -149.6 0.001465 -149.6 0.999990 -60.44
13.5210196 0.999980 -58.84 0.001471 -149.7 0.001471 -149.7 0.999990 -60.47
13.5233119 0.999980 -58.91 0.001478 -149.7 0.001478 -149.7 0.999990 -60.50
13.5255518 0.999980 -58.98 0.001484 -149.8 0.001484 -149.8 0.999990 -60.52
13.5277402 0.999980 -59.04 0.001490 -149.8 0.001490 -149.8 0.999990 -60.55
13.5298786 0.999980 -59.11 0.001496 -149.8 0.001496 -149.8 0.999990 -60.58
13.5319679 0.999980 -59.17 0.001502 -149.9 0.001502 -149.9 0.999990 -60.60
13.5340094 0.999980 -59.23 0.001507 -149.9 0.001507 -149.9 0.999990 -60.63
13.5360041 0.999980 -59.29 0.001513 -150.0 0.001513 -150.0 0.999990 -60.65
13.5379531 0.999980 -59.35 0.001519 -150.0 0.001519 -150.0 0.999990 -60.68
13.5398574 0.999980 -59.41 0.001524 -150.1 0.001524 -150.1 0.999990 -60.70
13.5417181 0.999980 -59.47 0.001530 -150.1 0.001530 -150.1 0.999990 -60.73
13.5435362 0.999980 -59.52 0.001535 -150.1 0.001535 -150.1 0.999990 -60.75
13.5453126 0.999980 -59.58 0.001540 -150.2 0.001540 -150.2 0.999990 -60.77
13.5470483 0.999980 -59.63 0.001546 -150.2 0.001546 -150.2 0.999990 -60.80
13.5487442 0.999980 -59.68 0.001551 -150.3 0.001551 -150.3 0.999990 -60.82
13.5500000 0.999980 -59.72 0.001555 -150.3 0.001555 -150.3 0.999990 -60.83
13.5504013 0.999980 -59.73 0.001556 -150.3 0.001556 -150.3 0.999990 -60.84
13.5520203 0.999980 -59.78 0.001561 -150.3 0.001561 -150.3 0.999990 -60.86
13.5536023 0.999980 -59.83 0.001566 -150.4 0.001566 -150.4 0.999990 -60.88
13.5551481 0.999980 -59.88 0.001570 -150.4 0.001570 -150.4 0.999990 -60.90
13.5566584 0.999980 -59.93 0.001575 -150.4 0.001575 -150.4 0.999990 -60.92
13.5581341 0.999980 -59.97 0.001580 -150.5 0.001580 -150.5 0.999989 -60.94
13.5595760 0.999980 -60.01 0.001584 -150.5 0.001584 -150.5 0.999989 -60.96
13.5609849 0.999980 -60.06 0.001589 -150.5 0.001589 -150.5 0.999989 -60.98
13.5623615 0.999980 -60.10 0.001593 -150.6 0.001593 -150.6 0.999989 -61.00
13.5637065 0.999980 -60.14 0.001597 -150.6 0.001597 -150.6 0.999989 -61.02
13.5650207 0.999980 -60.18 0.001602 -150.6 0.001602 -150.6 0.999989 -61.03
13.5663048 0.999980 -60.22 0.001606 -150.6 0.001606 -150.6 0.999989 -61.05
13.5675595 0.999980 -60.26 0.001610 -150.7 0.001610 -150.7 0.999989 -61.07
13.5687855 0.999980 -60.30 0.001614 -150.7 0.001614 -150.7 0.999989 -61.09
13.5699833 0.999980 -60.33 0.001618 -150.7 0.001618 -150.7 0.999989 -61.10
13.5711537 0.999980 -60.37 0.001622 -150.7 0.001622 -150.7 0.999989 -61.12
13.5722973 0.999980 -60.40 0.001625 -150.8 0.001625 -150.8 0.999989 -61.13
13.5734146 0.999980 -60.44 0.001629 -150.8 0.001629 -150.8 0.999989 -61.15
13.5745064 0.999980 -60.47 0.001633 -150.8 0.001633 -150.8 0.999989 -61.16
13.5755732 0.999980 -60.50 0.001636 -150.8 0.001636 -150.8 0.999989 -61.18
13.5766155 0.999980 -60.54 0.001640 -150.9 0.001640 -150.9 0.999989 -61.19
13.5776339 0.999980 -60.57 0.001643 -150.9 0.001643 -150.9 0.999989 -61.21
13.5786290 0.999980 -60.60 0.001647 -150.9 0.001647 -150.9 0.999989 -61.22
13.5796013 0.999980 -60.63 0.001650 -150.9 0.001650 -150.9 0.999989 -61.24
13.5805513 0.999980 -60.66 0.001653 -151.0 0.001653 -151.0 0.999989 -61.25
13.5814795 0.999980 -60.68 0.001656 -151.0 0.001656 -151.0 0.999989 -61.26
13.5823865 0.999980 -60.71 0.001659 -151.0 0.001659 -151.0 0.999989 -61.28
13.5832727 0.999980 -60.74 0.001662 -151.0 0.001662 -151.0 0.999989 -61.29
13.5841386 0.999980 -60.77 0.001666 -151.0 0.001666 -151.0 0.999989 -61.30
13.5849846 0.999980 -60.79 0.001668 -151.1 0.001668 -151.1 0.999989 -61.31
13.5858113 0.999980 -60.82 0.001671 -151.1 0.001671 -151.1 0.999989 -61.32
13.5866190 0.999980 -60.84 0.001674 -151.1 0.001674 -151.1 0.999989 -61.34
13.5874082 0.999980 -60.87 0.001677 -151.1 0.001677 -151.1 0.999989 -61.35
13.5881793 0.999980 -60.89 0.001680 -151.1 0.001680 -151.1 0.999989 -61.36
13.5889328 0.999980 -60.91 0.001682 -151.1 0.001682 -151.1 0.999989 -61.37
13.5896690 0.999980 -60.93 0.001685 -151.2 0.001685 -151.2 0.999989 -61.38
13.5903883 0.999980 -60.96 0.001688 -151.2 0.001688 -151.2 0.999989 -61.39
